21:01:54.199 [restartedMain] INFO  c.f.FrogApplication - [logStarting,55] - Starting FrogApplication using Java 1.8.0_333 on WenCheng-Pro16 with PID 19236 (D:\zhnlrjcs\znwl-agriculture-server-no\frog-admin\target\classes started by Wen Yi in D:\zhnlrjcs\znwl-agriculture-server-no)
21:01:54.213 [restartedMain] INFO  c.f.FrogApplication - [logStartupProfileInfo,659] - No active profile set, falling back to default profiles: default
21:01:54.235 [background-preinit] INFO  o.h.v.i.util.Version - [<clinit>,21] - HV000001: Hibernate Validator 6.2.0.Final
21:02:05.090 [restartedMain] INFO  o.a.c.h.Http11NioProtocol - [log,173] - Initializing ProtocolHandler ["http-nio-8081"]
21:02:05.091 [restartedMain] INFO  o.a.c.c.StandardService - [log,173] - Starting service [Tomcat]
21:02:05.092 [restartedMain] INFO  o.a.c.c.StandardEngine - [log,173] - Starting Servlet engine: [Apache Tomcat/9.0.54]
21:02:05.475 [restartedMain] INFO  o.a.c.c.C.[.[.[/] - [log,173] - Initializing Spring embedded WebApplicationContext
21:02:12.278 [restartedMain] INFO  o.f.b.s.n.ConnectionManager - [<init>,88] -  all connections, size: 1, list: [ConnectionInfo{host='192.168.1.5', port=20200}]
21:02:12.278 [restartedMain] INFO  o.f.b.s.n.NetworkImp - [start,167] - 
* TRACE INFORMATION:
----------------------------
====> STEP1: try to connect nodes with ecdsa context...

21:02:12.280 [restartedMain] INFO  o.f.b.s.n.NetworkImp - [start,174] - ====> <==== STEP1-1: Load certificates for ecdsa context success..., start connManager with ECDSA sslContext
21:02:12.332 [restartedMain] INFO  o.f.b.s.n.ConnectionManager - [initSslContext,238] -  build ECDSA ssl context with configured certificates 
21:02:28.061 [restartedMain] INFO  o.f.b.s.n.ConnectionManager - [stopNetty,173] - The netty has been stopped
21:02:28.310 [restartedMain] INFO  c.a.d.p.DruidDataSource - [close,2071] - {dataSource-0} closing ...
21:02:28.359 [restartedMain] INFO  o.a.c.c.StandardService - [log,173] - Stopping service [Tomcat]
21:03:00.300 [restartedMain] INFO  c.f.FrogApplication - [logStarting,55] - Starting FrogApplication using Java 1.8.0_333 on WenCheng-Pro16 with PID 21240 (D:\zhnlrjcs\znwl-agriculture-server-no\frog-admin\target\classes started by Wen Yi in D:\zhnlrjcs\znwl-agriculture-server-no)
21:03:00.305 [restartedMain] INFO  c.f.FrogApplication - [logStartupProfileInfo,659] - No active profile set, falling back to default profiles: default
21:03:00.332 [background-preinit] INFO  o.h.v.i.util.Version - [<clinit>,21] - HV000001: Hibernate Validator 6.2.0.Final
21:03:08.892 [restartedMain] INFO  o.a.c.h.Http11NioProtocol - [log,173] - Initializing ProtocolHandler ["http-nio-8081"]
21:03:08.893 [restartedMain] INFO  o.a.c.c.StandardService - [log,173] - Starting service [Tomcat]
21:03:08.893 [restartedMain] INFO  o.a.c.c.StandardEngine - [log,173] - Starting Servlet engine: [Apache Tomcat/9.0.54]
21:03:09.258 [restartedMain] INFO  o.a.c.c.C.[.[.[/] - [log,173] - Initializing Spring embedded WebApplicationContext
21:03:15.973 [restartedMain] INFO  o.f.b.s.n.ConnectionManager - [<init>,88] -  all connections, size: 1, list: [ConnectionInfo{host='192.168.1.5', port=20200}]
21:03:15.973 [restartedMain] INFO  o.f.b.s.n.NetworkImp - [start,167] - 
* TRACE INFORMATION:
----------------------------
====> STEP1: try to connect nodes with ecdsa context...

21:03:15.975 [restartedMain] INFO  o.f.b.s.n.NetworkImp - [start,174] - ====> <==== STEP1-1: Load certificates for ecdsa context success..., start connManager with ECDSA sslContext
21:03:16.026 [restartedMain] INFO  o.f.b.s.n.ConnectionManager - [initSslContext,238] -  build ECDSA ssl context with configured certificates 
21:03:31.639 [restartedMain] INFO  o.f.b.s.n.ConnectionManager - [stopNetty,173] - The netty has been stopped
21:03:31.649 [restartedMain] INFO  c.a.d.p.DruidDataSource - [close,2071] - {dataSource-0} closing ...
21:03:31.877 [restartedMain] INFO  o.a.c.c.StandardService - [log,173] - Stopping service [Tomcat]
21:16:37.756 [restartedMain] INFO  c.f.FrogApplication - [logStarting,55] - Starting FrogApplication using Java 1.8.0_333 on WenCheng-Pro16 with PID 23392 (D:\zhnlrjcs\znwl-agriculture-server-no\frog-admin\target\classes started by Wen Yi in D:\zhnlrjcs\znwl-agriculture-server-no)
21:16:37.761 [restartedMain] INFO  c.f.FrogApplication - [logStartupProfileInfo,659] - No active profile set, falling back to default profiles: default
21:16:37.786 [background-preinit] INFO  o.h.v.i.util.Version - [<clinit>,21] - HV000001: Hibernate Validator 6.2.0.Final
21:16:46.911 [restartedMain] INFO  o.a.c.h.Http11NioProtocol - [log,173] - Initializing ProtocolHandler ["http-nio-8081"]
21:16:46.912 [restartedMain] INFO  o.a.c.c.StandardService - [log,173] - Starting service [Tomcat]
21:16:46.912 [restartedMain] INFO  o.a.c.c.StandardEngine - [log,173] - Starting Servlet engine: [Apache Tomcat/9.0.54]
21:16:47.286 [restartedMain] INFO  o.a.c.c.C.[.[.[/] - [log,173] - Initializing Spring embedded WebApplicationContext
21:16:54.214 [restartedMain] INFO  o.f.b.s.n.ConnectionManager - [<init>,88] -  all connections, size: 1, list: [ConnectionInfo{host='192.168.1.5', port=20200}]
21:16:54.214 [restartedMain] INFO  o.f.b.s.n.NetworkImp - [start,167] - 
* TRACE INFORMATION:
----------------------------
====> STEP1: try to connect nodes with ecdsa context...

21:16:54.216 [restartedMain] INFO  o.f.b.s.n.NetworkImp - [start,174] - ====> <==== STEP1-1: Load certificates for ecdsa context success..., start connManager with ECDSA sslContext
21:16:54.270 [restartedMain] INFO  o.f.b.s.n.ConnectionManager - [initSslContext,238] -  build ECDSA ssl context with configured certificates 
21:16:58.086 [restartedMain] INFO  o.f.b.s.n.ConnectionManager - [checkConnectionResult,402] -  ssl handshake success 192.168.1.5:20200
21:16:58.089 [nioEventLoopGroup-4-1] INFO  o.f.b.s.n.ChannelHandler - [userEventTriggered,73] -  handshake success, host: 192.168.1.5, port: 20200, ctx: 776224172
21:16:58.289 [nioEventLoopGroup-4-1] INFO  o.f.b.s.c.ChannelImp - [onResponse,225] -  node: ClientVersion{version='2.11.0', supportedVersion='2.11.0', chainId='1', buildTime='20240520 01:38:47', buildType='Linux/g++/Release', gitBranch='HEAD', gitCommitHash='bee4dda033297443f02774973445d954933db885'}, content: {"id":0,"jsonrpc":"2.0","result":{"Build Time":"20240520 01:38:47","Build Type":"Linux/g++/Release","Chain Id":"1","FISCO-BCOS Version":"2.11.0","Git Branch":"HEAD","Git Commit Hash":"bee4dda033297443f02774973445d954933db885","Supported Version":"2.11.0"}}

21:16:58.292 [nioEventLoopGroup-4-1] INFO  o.f.b.s.c.ChannelImp - [onResponse,233] -  support channel handshake node
21:16:58.308 [nioEventLoopGroup-4-1] INFO  o.f.b.s.c.ChannelImp - [onResponse,309] -  channel protocol handshake success, set socket channel protocol, host: 192.168.1.5:20200, channel protocol: ChannelProtocol [protocol=3, nodeVersion=2.11.0, EnumProtocol=VERSION_3]
21:16:58.320 [restartedMain] INFO  o.f.b.s.c.ChannelImp - [checkConnectionsToStartPeriodTask,126] -  Connect to  nodes: 192.168.1.5:20200, 
21:16:58.320 [restartedMain] INFO  o.f.bcos.sdk.BcosSDK - [<init>,77] - create BcosSDK, start channel success, cryptoType: 0
21:16:58.330 [restartedMain] INFO  o.f.bcos.sdk.BcosSDK - [<init>,87] - create BcosSDK, start channel succ, channelProcessorThreadSize: 16, receiptProcessorThreadSize: 16
21:16:58.349 [restartedMain] INFO  o.f.b.s.s.GroupManagerServiceImpl - [registerBlockNumberNotifyHandler,260] - registerBlockNumberNotifyHandler
21:16:58.350 [restartedMain] INFO  o.f.b.s.s.GroupManagerServiceImpl - [registerTransactionNotifyHandler,282] - registerTransactionNotifyHandler
21:16:58.400 [restartedMain] INFO  o.f.bcos.sdk.BcosSDK - [<init>,98] - create BcosSDK, create groupManagerService success
21:16:59.518 [restartedMain] INFO  o.f.b.s.amop.AmopImp - [sendSubscribe,216] - update subscribe inform 1 peers
21:16:59.535 [restartedMain] INFO  o.f.b.s.amop.AmopImp - [start,188] - amop module started
21:16:59.535 [restartedMain] INFO  o.f.b.s.amop.AmopImp - [sendSubscribe,216] - update subscribe inform 1 peers
21:16:59.537 [restartedMain] INFO  o.f.bcos.sdk.BcosSDK - [<init>,103] - create BcosSDK, create Amop success
21:16:59.578 [restartedMain] INFO  o.f.b.s.c.Client - [build,114] - build client success for group 1, crypto type 0
21:16:59.578 [restartedMain] INFO  o.f.bcos.sdk.BcosSDK - [getClient,178] - create client for group 1 success
21:16:59.593 [restartedMain] INFO  c.f.I.c.SdkBeanConfig - [client,55] - Chain connect successful. Current block number 445
21:17:01.139 [restartedMain] INFO  c.a.d.p.DruidDataSource - [init,998] - {dataSource-1} inited
21:17:03.597 [restartedMain] INFO  o.q.i.StdSchedulerFactory - [instantiate,1220] - Using default implementation for ThreadExecutor
21:17:03.625 [restartedMain] INFO  o.q.c.SchedulerSignalerImpl - [<init>,61] - Initialized Scheduler Signaller of type: class org.quartz.core.SchedulerSignalerImpl
21:17:03.625 [restartedMain] INFO  o.q.c.QuartzScheduler - [<init>,229] - Quartz Scheduler v.2.3.2 created.
21:17:03.639 [restartedMain] INFO  o.q.c.QuartzScheduler - [initialize,294] - Scheduler meta-data: Quartz Scheduler (v2.3.2) 'RuoyiScheduler' with instanceId 'WenCheng-Pro161765372623600'
  Scheduler class: 'org.quartz.core.QuartzScheduler' - running locally.
  NOT STARTED.
  Currently in standby mode.
  Number of jobs executed: 0
  Using thread pool 'org.quartz.simpl.SimpleThreadPool' - with 20 threads.
  Using job-store 'org.springframework.scheduling.quartz.LocalDataSourceJobStore' - which supports persistence. and is clustered.

21:17:03.641 [restartedMain] INFO  o.q.i.StdSchedulerFactory - [instantiate,1374] - Quartz scheduler 'RuoyiScheduler' initialized from an externally provided properties instance.
21:17:03.641 [restartedMain] INFO  o.q.i.StdSchedulerFactory - [instantiate,1378] - Quartz scheduler version: 2.3.2
21:17:03.644 [restartedMain] INFO  o.q.c.QuartzScheduler - [setJobFactory,2293] - JobFactory set to: org.springframework.scheduling.quartz.AdaptableJobFactory@2c62f544
21:17:06.151 [restartedMain] INFO  c.f.a.u.DeviceStatusUtil - [lambda$initializeSensorCommands$2,100] - 加载传感器指令 - 类型：1，指令：01 03 00 00 00 02 C4 0B
21:17:06.151 [restartedMain] INFO  c.f.a.u.DeviceStatusUtil - [lambda$initializeSensorCommands$2,100] - 加载传感器指令 - 类型：2，指令：02 03 01 F4 00 08 04 31
21:17:06.153 [restartedMain] INFO  c.f.a.u.DeviceStatusUtil - [lambda$initializeSensorCommands$2,100] - 加载传感器指令 - 类型：3，指令：03 03 00 00 00 01 85 E8
21:17:06.153 [restartedMain] INFO  c.f.a.u.DeviceStatusUtil - [lambda$initializeSensorCommands$2,100] - 加载传感器指令 - 类型：4，指令：04 03 00 00 00 02 C4 5E
21:17:06.153 [restartedMain] INFO  c.f.a.u.DeviceStatusUtil - [lambda$initializeSensorCommands$2,100] - 加载传感器指令 - 类型：5，指令：05 03 00 00 00 01 85 8E
21:17:06.153 [restartedMain] INFO  c.f.a.u.DeviceStatusUtil - [lambda$initializeSensorCommands$2,100] - 加载传感器指令 - 类型：6，指令：06 03 00 00 00 04 45 BE
21:17:06.153 [restartedMain] INFO  c.f.a.u.DeviceStatusUtil - [lambda$initializeSensorCommands$2,100] - 加载传感器指令 - 类型：8，指令：08 03 00 05 00 03 15 53
21:17:06.153 [restartedMain] INFO  c.f.a.u.DeviceStatusUtil - [lambda$initializeSensorCommands$2,100] - 加载传感器指令 - 类型：2452，指令：254
21:17:06.158 [restartedMain] INFO  c.f.a.u.ThresholdConfigUtil - [initializeThresholdConfig,57] - 传感器阈值配置初始化完成，共配置8个参数阈值
21:17:13.328 [restartedMain] INFO  o.a.c.h.Http11NioProtocol - [log,173] - Starting ProtocolHandler ["http-nio-8081"]
21:17:15.024 [restartedMain] INFO  c.f.FrogApplication - [logStarted,61] - Started FrogApplication in 38.191 seconds (JVM running for 41.779)
21:17:15.966 [Quartz Scheduler [RuoyiScheduler]] INFO  o.q.c.QuartzScheduler - [start,547] - Scheduler RuoyiScheduler_$_WenCheng-Pro161765372623600 started.
21:18:30.256 [http-nio-8081-exec-1] INFO  o.a.c.c.C.[.[.[/] - [log,173] - Initializing Spring DispatcherServlet 'dispatcherServlet'
21:19:28.373 [schedule-pool-2] INFO  sys-user - [run,55] - [127.0.0.1]内网IP[admin][Success][登录成功]
21:19:30.863 [http-nio-8081-exec-4] INFO  c.f.a.w.AlertWebSocketServer - [onOpen,38] - 收到新的连接请求，clientId: client_1765372770676_wx4lmol29
21:19:30.863 [http-nio-8081-exec-4] INFO  c.f.a.w.AlertWebSocketServer - [onOpen,53] - 客户端 client_1765372770676_wx4lmol29 连接成功，当前在线数：1
21:29:01.076 [Thread-76] INFO  o.q.c.QuartzScheduler - [standby,585] - Scheduler RuoyiScheduler_$_WenCheng-Pro161765372623600 paused.
21:29:02.242 [Thread-76] INFO  c.f.a.w.AlertWebSocketServer - [onClose,60] - 客户端 client_1765372770676_wx4lmol29 断开连接，当前在线数：0
21:29:02.389 [Thread-76] INFO  o.q.c.QuartzScheduler - [shutdown,666] - Scheduler RuoyiScheduler_$_WenCheng-Pro161765372623600 shutting down.
21:29:02.390 [Thread-76] INFO  o.q.c.QuartzScheduler - [standby,585] - Scheduler RuoyiScheduler_$_WenCheng-Pro161765372623600 paused.
21:29:02.392 [Thread-76] INFO  o.q.c.QuartzScheduler - [shutdown,740] - Scheduler RuoyiScheduler_$_WenCheng-Pro161765372623600 shutdown complete.
21:29:02.394 [Thread-76] INFO  sys-user - [shutdownAsyncManager,31] - ====关闭后台任务任务线程池====
21:29:02.411 [Thread-76] INFO  c.a.d.p.DruidDataSource - [close,2071] - {dataSource-1} closing ...
21:29:02.431 [Thread-76] INFO  c.a.d.p.DruidDataSource - [close,2144] - {dataSource-1} closed
21:29:04.190 [restartedMain] INFO  c.f.FrogApplication - [logStarting,55] - Starting FrogApplication using Java 1.8.0_333 on WenCheng-Pro16 with PID 23392 (D:\zhnlrjcs\znwl-agriculture-server-no\frog-admin\target\classes started by Wen Yi in D:\zhnlrjcs\znwl-agriculture-server-no)
21:29:04.190 [restartedMain] INFO  c.f.FrogApplication - [logStartupProfileInfo,659] - No active profile set, falling back to default profiles: default
21:29:11.052 [restartedMain] INFO  o.a.c.h.Http11NioProtocol - [log,173] - Initializing ProtocolHandler ["http-nio-8081"]
21:29:11.052 [restartedMain] INFO  o.a.c.c.StandardService - [log,173] - Starting service [Tomcat]
21:29:11.054 [restartedMain] INFO  o.a.c.c.StandardEngine - [log,173] - Starting Servlet engine: [Apache Tomcat/9.0.54]
21:29:11.169 [restartedMain] INFO  o.a.c.c.C.[.[.[/] - [log,173] - Initializing Spring embedded WebApplicationContext
21:29:14.794 [restartedMain] INFO  o.f.b.s.n.ConnectionManager - [<init>,88] -  all connections, size: 1, list: [ConnectionInfo{host='192.168.1.5', port=20200}]
21:29:14.794 [restartedMain] INFO  o.f.b.s.n.NetworkImp - [start,167] - 
* TRACE INFORMATION:
----------------------------
====> STEP1: try to connect nodes with ecdsa context...

21:29:14.794 [restartedMain] INFO  o.f.b.s.n.NetworkImp - [start,174] - ====> <==== STEP1-1: Load certificates for ecdsa context success..., start connManager with ECDSA sslContext
21:29:14.825 [restartedMain] INFO  o.f.b.s.n.ConnectionManager - [initSslContext,238] -  build ECDSA ssl context with configured certificates 
21:29:14.877 [restartedMain] INFO  o.f.b.s.n.ConnectionManager - [checkConnectionResult,402] -  ssl handshake success 192.168.1.5:20200
21:29:14.877 [nioEventLoopGroup-8-1] INFO  o.f.b.s.n.ChannelHandler - [userEventTriggered,73] -  handshake success, host: 192.168.1.5, port: 20200, ctx: 1174068837
21:29:14.880 [nioEventLoopGroup-8-1] INFO  o.f.b.s.c.ChannelImp - [onResponse,225] -  node: ClientVersion{version='2.11.0', supportedVersion='2.11.0', chainId='1', buildTime='20240520 01:38:47', buildType='Linux/g++/Release', gitBranch='HEAD', gitCommitHash='bee4dda033297443f02774973445d954933db885'}, content: {"id":1,"jsonrpc":"2.0","result":{"Build Time":"20240520 01:38:47","Build Type":"Linux/g++/Release","Chain Id":"1","FISCO-BCOS Version":"2.11.0","Git Branch":"HEAD","Git Commit Hash":"bee4dda033297443f02774973445d954933db885","Supported Version":"2.11.0"}}

21:29:14.882 [nioEventLoopGroup-8-1] INFO  o.f.b.s.c.ChannelImp - [onResponse,233] -  support channel handshake node
21:29:14.882 [nioEventLoopGroup-8-1] INFO  o.f.b.s.c.ChannelImp - [onResponse,309] -  channel protocol handshake success, set socket channel protocol, host: 192.168.1.5:20200, channel protocol: ChannelProtocol [protocol=3, nodeVersion=2.11.0, EnumProtocol=VERSION_3]
21:29:14.911 [restartedMain] INFO  o.f.b.s.c.ChannelImp - [checkConnectionsToStartPeriodTask,126] -  Connect to  nodes: 192.168.1.5:20200, 
21:29:14.911 [restartedMain] INFO  o.f.bcos.sdk.BcosSDK - [<init>,77] - create BcosSDK, start channel success, cryptoType: 0
21:29:14.911 [restartedMain] INFO  o.f.bcos.sdk.BcosSDK - [<init>,87] - create BcosSDK, start channel succ, channelProcessorThreadSize: 16, receiptProcessorThreadSize: 16
21:29:14.913 [restartedMain] INFO  o.f.b.s.s.GroupManagerServiceImpl - [registerBlockNumberNotifyHandler,260] - registerBlockNumberNotifyHandler
21:29:14.913 [restartedMain] INFO  o.f.b.s.s.GroupManagerServiceImpl - [registerTransactionNotifyHandler,282] - registerTransactionNotifyHandler
21:29:14.919 [restartedMain] INFO  o.f.bcos.sdk.BcosSDK - [<init>,98] - create BcosSDK, create groupManagerService success
21:29:15.030 [restartedMain] INFO  o.f.b.s.amop.AmopImp - [sendSubscribe,216] - update subscribe inform 1 peers
21:29:15.030 [restartedMain] INFO  o.f.b.s.amop.AmopImp - [start,188] - amop module started
21:29:15.030 [restartedMain] INFO  o.f.b.s.amop.AmopImp - [sendSubscribe,216] - update subscribe inform 1 peers
21:29:15.030 [restartedMain] INFO  o.f.bcos.sdk.BcosSDK - [<init>,103] - create BcosSDK, create Amop success
21:29:15.073 [restartedMain] INFO  o.f.b.s.c.Client - [build,114] - build client success for group 1, crypto type 0
21:29:15.074 [restartedMain] INFO  o.f.bcos.sdk.BcosSDK - [getClient,178] - create client for group 1 success
21:29:15.081 [restartedMain] INFO  c.f.I.c.SdkBeanConfig - [client,55] - Chain connect successful. Current block number 445
21:29:16.005 [restartedMain] INFO  c.a.d.p.DruidDataSource - [close,2071] - {dataSource-0} closing ...
21:29:16.033 [restartedMain] INFO  o.a.c.c.StandardService - [log,173] - Stopping service [Tomcat]
21:29:20.708 [restartedMain] INFO  c.f.FrogApplication - [logStarting,55] - Starting FrogApplication using Java 1.8.0_333 on WenCheng-Pro16 with PID 23392 (D:\zhnlrjcs\znwl-agriculture-server-no\frog-admin\target\classes started by Wen Yi in D:\zhnlrjcs\znwl-agriculture-server-no)
21:29:20.710 [restartedMain] INFO  c.f.FrogApplication - [logStartupProfileInfo,659] - No active profile set, falling back to default profiles: default
21:29:26.960 [restartedMain] INFO  o.a.c.h.Http11NioProtocol - [log,173] - Initializing ProtocolHandler ["http-nio-8081"]
21:29:26.960 [restartedMain] INFO  o.a.c.c.StandardService - [log,173] - Starting service [Tomcat]
21:29:26.960 [restartedMain] INFO  o.a.c.c.StandardEngine - [log,173] - Starting Servlet engine: [Apache Tomcat/9.0.54]
21:29:27.110 [restartedMain] INFO  o.a.c.c.C.[.[.[/] - [log,173] - Initializing Spring embedded WebApplicationContext
21:29:30.524 [restartedMain] INFO  o.f.b.s.n.ConnectionManager - [<init>,88] -  all connections, size: 1, list: [ConnectionInfo{host='192.168.1.5', port=20200}]
21:29:30.524 [restartedMain] INFO  o.f.b.s.n.NetworkImp - [start,167] - 
* TRACE INFORMATION:
----------------------------
====> STEP1: try to connect nodes with ecdsa context...

21:29:30.524 [restartedMain] INFO  o.f.b.s.n.NetworkImp - [start,174] - ====> <==== STEP1-1: Load certificates for ecdsa context success..., start connManager with ECDSA sslContext
21:29:30.552 [restartedMain] INFO  o.f.b.s.n.ConnectionManager - [initSslContext,238] -  build ECDSA ssl context with configured certificates 
21:29:30.569 [nioEventLoopGroup-11-1] INFO  o.f.b.s.n.ChannelHandler - [userEventTriggered,73] -  handshake success, host: 192.168.1.5, port: 20200, ctx: 975017230
21:29:30.569 [restartedMain] INFO  o.f.b.s.n.ConnectionManager - [checkConnectionResult,402] -  ssl handshake success 192.168.1.5:20200
21:29:30.573 [nioEventLoopGroup-11-1] INFO  o.f.b.s.c.ChannelImp - [onResponse,225] -  node: ClientVersion{version='2.11.0', supportedVersion='2.11.0', chainId='1', buildTime='20240520 01:38:47', buildType='Linux/g++/Release', gitBranch='HEAD', gitCommitHash='bee4dda033297443f02774973445d954933db885'}, content: {"id":2,"jsonrpc":"2.0","result":{"Build Time":"20240520 01:38:47","Build Type":"Linux/g++/Release","Chain Id":"1","FISCO-BCOS Version":"2.11.0","Git Branch":"HEAD","Git Commit Hash":"bee4dda033297443f02774973445d954933db885","Supported Version":"2.11.0"}}

21:29:30.573 [nioEventLoopGroup-11-1] INFO  o.f.b.s.c.ChannelImp - [onResponse,233] -  support channel handshake node
21:29:30.576 [nioEventLoopGroup-11-1] INFO  o.f.b.s.c.ChannelImp - [onResponse,309] -  channel protocol handshake success, set socket channel protocol, host: 192.168.1.5:20200, channel protocol: ChannelProtocol [protocol=3, nodeVersion=2.11.0, EnumProtocol=VERSION_3]
21:29:30.615 [restartedMain] INFO  o.f.b.s.c.ChannelImp - [checkConnectionsToStartPeriodTask,126] -  Connect to  nodes: 192.168.1.5:20200, 
21:29:30.615 [restartedMain] INFO  o.f.bcos.sdk.BcosSDK - [<init>,77] - create BcosSDK, start channel success, cryptoType: 0
21:29:30.615 [restartedMain] INFO  o.f.bcos.sdk.BcosSDK - [<init>,87] - create BcosSDK, start channel succ, channelProcessorThreadSize: 16, receiptProcessorThreadSize: 16
21:29:30.615 [restartedMain] INFO  o.f.b.s.s.GroupManagerServiceImpl - [registerBlockNumberNotifyHandler,260] - registerBlockNumberNotifyHandler
21:29:30.615 [restartedMain] INFO  o.f.b.s.s.GroupManagerServiceImpl - [registerTransactionNotifyHandler,282] - registerTransactionNotifyHandler
21:29:30.622 [restartedMain] INFO  o.f.bcos.sdk.BcosSDK - [<init>,98] - create BcosSDK, create groupManagerService success
21:29:30.693 [restartedMain] INFO  o.f.b.s.amop.AmopImp - [sendSubscribe,216] - update subscribe inform 1 peers
21:29:30.693 [restartedMain] INFO  o.f.b.s.amop.AmopImp - [start,188] - amop module started
21:29:30.693 [restartedMain] INFO  o.f.b.s.amop.AmopImp - [sendSubscribe,216] - update subscribe inform 1 peers
21:29:30.694 [restartedMain] INFO  o.f.bcos.sdk.BcosSDK - [<init>,103] - create BcosSDK, create Amop success
21:29:30.723 [restartedMain] INFO  o.f.b.s.c.Client - [build,114] - build client success for group 1, crypto type 0
21:29:30.723 [restartedMain] INFO  o.f.bcos.sdk.BcosSDK - [getClient,178] - create client for group 1 success
21:29:30.742 [restartedMain] INFO  c.f.I.c.SdkBeanConfig - [client,55] - Chain connect successful. Current block number 445
21:29:31.803 [restartedMain] INFO  c.a.d.p.DruidDataSource - [init,998] - {dataSource-2} inited
21:29:33.198 [restartedMain] INFO  o.q.i.StdSchedulerFactory - [instantiate,1220] - Using default implementation for ThreadExecutor
21:29:33.203 [restartedMain] INFO  o.q.c.SchedulerSignalerImpl - [<init>,61] - Initialized Scheduler Signaller of type: class org.quartz.core.SchedulerSignalerImpl
21:29:33.203 [restartedMain] INFO  o.q.c.QuartzScheduler - [<init>,229] - Quartz Scheduler v.2.3.2 created.
21:29:33.203 [restartedMain] INFO  o.q.c.QuartzScheduler - [initialize,294] - Scheduler meta-data: Quartz Scheduler (v2.3.2) 'RuoyiScheduler' with instanceId 'WenCheng-Pro161765373373199'
  Scheduler class: 'org.quartz.core.QuartzScheduler' - running locally.
  NOT STARTED.
  Currently in standby mode.
  Number of jobs executed: 0
  Using thread pool 'org.quartz.simpl.SimpleThreadPool' - with 20 threads.
  Using job-store 'org.springframework.scheduling.quartz.LocalDataSourceJobStore' - which supports persistence. and is clustered.

21:29:33.203 [restartedMain] INFO  o.q.i.StdSchedulerFactory - [instantiate,1374] - Quartz scheduler 'RuoyiScheduler' initialized from an externally provided properties instance.
21:29:33.204 [restartedMain] INFO  o.q.i.StdSchedulerFactory - [instantiate,1378] - Quartz scheduler version: 2.3.2
21:29:33.204 [restartedMain] INFO  o.q.c.QuartzScheduler - [setJobFactory,2293] - JobFactory set to: org.springframework.scheduling.quartz.AdaptableJobFactory@2e60e947
21:29:35.449 [restartedMain] INFO  c.f.a.u.DeviceStatusUtil - [lambda$initializeSensorCommands$2,100] - 加载传感器指令 - 类型：1，指令：01 03 00 00 00 02 C4 0B
21:29:35.449 [restartedMain] INFO  c.f.a.u.DeviceStatusUtil - [lambda$initializeSensorCommands$2,100] - 加载传感器指令 - 类型：2，指令：02 03 01 F4 00 08 04 31
21:29:35.449 [restartedMain] INFO  c.f.a.u.DeviceStatusUtil - [lambda$initializeSensorCommands$2,100] - 加载传感器指令 - 类型：3，指令：03 03 00 00 00 01 85 E8
21:29:35.449 [restartedMain] INFO  c.f.a.u.DeviceStatusUtil - [lambda$initializeSensorCommands$2,100] - 加载传感器指令 - 类型：4，指令：04 03 00 00 00 02 C4 5E
21:29:35.449 [restartedMain] INFO  c.f.a.u.DeviceStatusUtil - [lambda$initializeSensorCommands$2,100] - 加载传感器指令 - 类型：5，指令：05 03 00 00 00 01 85 8E
21:29:35.449 [restartedMain] INFO  c.f.a.u.DeviceStatusUtil - [lambda$initializeSensorCommands$2,100] - 加载传感器指令 - 类型：6，指令：06 03 00 00 00 04 45 BE
21:29:35.451 [restartedMain] INFO  c.f.a.u.DeviceStatusUtil - [lambda$initializeSensorCommands$2,100] - 加载传感器指令 - 类型：8，指令：08 03 00 05 00 03 15 53
21:29:35.451 [restartedMain] INFO  c.f.a.u.DeviceStatusUtil - [lambda$initializeSensorCommands$2,100] - 加载传感器指令 - 类型：2452，指令：254
21:29:35.454 [restartedMain] INFO  c.f.a.u.ThresholdConfigUtil - [initializeThresholdConfig,57] - 传感器阈值配置初始化完成，共配置8个参数阈值
21:29:39.129 [restartedMain] INFO  o.a.c.h.Http11NioProtocol - [log,173] - Starting ProtocolHandler ["http-nio-8081"]
21:29:39.739 [restartedMain] INFO  c.f.FrogApplication - [logStarted,61] - Started FrogApplication in 19.285 seconds (JVM running for 786.493)
21:29:40.251 [http-nio-8081-exec-1] INFO  o.a.c.c.C.[.[.[/] - [log,173] - Initializing Spring DispatcherServlet 'dispatcherServlet'
21:29:40.257 [http-nio-8081-exec-1] INFO  c.f.a.w.AlertWebSocketServer - [onOpen,38] - 收到新的连接请求，clientId: client_1765372770676_wx4lmol29
21:29:40.258 [http-nio-8081-exec-1] INFO  c.f.a.w.AlertWebSocketServer - [onOpen,53] - 客户端 client_1765372770676_wx4lmol29 连接成功，当前在线数：1
21:29:40.751 [Quartz Scheduler [RuoyiScheduler]] INFO  o.q.c.QuartzScheduler - [start,547] - Scheduler RuoyiScheduler_$_WenCheng-Pro161765373373199 started.
21:35:03.802 [http-nio-8081-exec-2] INFO  c.f.a.w.AlertWebSocketServer - [onClose,60] - 客户端 client_1765372770676_wx4lmol29 断开连接，当前在线数：0
21:35:08.862 [http-nio-8081-exec-4] INFO  c.f.a.w.AlertWebSocketServer - [onOpen,38] - 收到新的连接请求，clientId: client_1765372770676_wx4lmol29
21:35:08.862 [http-nio-8081-exec-4] INFO  c.f.a.w.AlertWebSocketServer - [onOpen,53] - 客户端 client_1765372770676_wx4lmol29 连接成功，当前在线数：1
21:36:01.707 [http-nio-8081-exec-9] INFO  c.f.a.w.AlertWebSocketServer - [onClose,60] - 客户端 client_1765372770676_wx4lmol29 断开连接，当前在线数：0
22:04:56.417 [Thread-103] INFO  o.q.c.QuartzScheduler - [standby,585] - Scheduler RuoyiScheduler_$_WenCheng-Pro161765373373199 paused.
22:04:57.576 [Thread-103] INFO  o.q.c.QuartzScheduler - [shutdown,666] - Scheduler RuoyiScheduler_$_WenCheng-Pro161765373373199 shutting down.
22:04:57.577 [Thread-103] INFO  o.q.c.QuartzScheduler - [standby,585] - Scheduler RuoyiScheduler_$_WenCheng-Pro161765373373199 paused.
22:04:57.580 [Thread-103] INFO  o.q.c.QuartzScheduler - [shutdown,740] - Scheduler RuoyiScheduler_$_WenCheng-Pro161765373373199 shutdown complete.
22:04:57.582 [Thread-103] INFO  sys-user - [shutdownAsyncManager,31] - ====关闭后台任务任务线程池====
22:04:57.601 [Thread-103] INFO  c.a.d.p.DruidDataSource - [close,2071] - {dataSource-2} closing ...
22:04:57.605 [Thread-103] INFO  c.a.d.p.DruidDataSource - [close,2144] - {dataSource-2} closed
22:05:00.239 [restartedMain] INFO  c.f.FrogApplication - [logStarting,55] - Starting FrogApplication using Java 1.8.0_333 on WenCheng-Pro16 with PID 23392 (D:\zhnlrjcs\znwl-agriculture-server-no\frog-admin\target\classes started by Wen Yi in D:\zhnlrjcs\znwl-agriculture-server-no)
22:05:00.239 [restartedMain] INFO  c.f.FrogApplication - [logStartupProfileInfo,659] - No active profile set, falling back to default profiles: default
22:05:07.715 [restartedMain] INFO  o.a.c.h.Http11NioProtocol - [log,173] - Initializing ProtocolHandler ["http-nio-8081"]
22:05:07.715 [restartedMain] INFO  o.a.c.c.StandardService - [log,173] - Starting service [Tomcat]
22:05:07.715 [restartedMain] INFO  o.a.c.c.StandardEngine - [log,173] - Starting Servlet engine: [Apache Tomcat/9.0.54]
22:05:07.900 [restartedMain] INFO  o.a.c.c.C.[.[.[/] - [log,173] - Initializing Spring embedded WebApplicationContext
22:05:11.009 [restartedMain] INFO  o.f.b.s.n.ConnectionManager - [<init>,88] -  all connections, size: 1, list: [ConnectionInfo{host='192.168.1.5', port=20200}]
22:05:11.009 [restartedMain] INFO  o.f.b.s.n.NetworkImp - [start,167] - 
* TRACE INFORMATION:
----------------------------
====> STEP1: try to connect nodes with ecdsa context...

22:05:11.010 [restartedMain] INFO  o.f.b.s.n.NetworkImp - [start,174] - ====> <==== STEP1-1: Load certificates for ecdsa context success..., start connManager with ECDSA sslContext
22:05:11.037 [restartedMain] INFO  o.f.b.s.n.ConnectionManager - [initSslContext,238] -  build ECDSA ssl context with configured certificates 
22:05:11.084 [restartedMain] INFO  o.f.b.s.n.ConnectionManager - [checkConnectionResult,402] -  ssl handshake success 192.168.1.5:20200
22:05:11.084 [nioEventLoopGroup-15-1] INFO  o.f.b.s.n.ChannelHandler - [userEventTriggered,73] -  handshake success, host: 192.168.1.5, port: 20200, ctx: 577044998
22:05:11.089 [nioEventLoopGroup-15-1] INFO  o.f.b.s.c.ChannelImp - [onResponse,225] -  node: ClientVersion{version='2.11.0', supportedVersion='2.11.0', chainId='1', buildTime='20240520 01:38:47', buildType='Linux/g++/Release', gitBranch='HEAD', gitCommitHash='bee4dda033297443f02774973445d954933db885'}, content: {"id":3,"jsonrpc":"2.0","result":{"Build Time":"20240520 01:38:47","Build Type":"Linux/g++/Release","Chain Id":"1","FISCO-BCOS Version":"2.11.0","Git Branch":"HEAD","Git Commit Hash":"bee4dda033297443f02774973445d954933db885","Supported Version":"2.11.0"}}

22:05:11.090 [nioEventLoopGroup-15-1] INFO  o.f.b.s.c.ChannelImp - [onResponse,233] -  support channel handshake node
22:05:11.091 [nioEventLoopGroup-15-1] INFO  o.f.b.s.c.ChannelImp - [onResponse,309] -  channel protocol handshake success, set socket channel protocol, host: 192.168.1.5:20200, channel protocol: ChannelProtocol [protocol=3, nodeVersion=2.11.0, EnumProtocol=VERSION_3]
22:05:11.130 [restartedMain] INFO  o.f.b.s.c.ChannelImp - [checkConnectionsToStartPeriodTask,126] -  Connect to  nodes: 192.168.1.5:20200, 
22:05:11.131 [restartedMain] INFO  o.f.bcos.sdk.BcosSDK - [<init>,77] - create BcosSDK, start channel success, cryptoType: 0
22:05:11.132 [restartedMain] INFO  o.f.bcos.sdk.BcosSDK - [<init>,87] - create BcosSDK, start channel succ, channelProcessorThreadSize: 16, receiptProcessorThreadSize: 16
22:05:11.132 [restartedMain] INFO  o.f.b.s.s.GroupManagerServiceImpl - [registerBlockNumberNotifyHandler,260] - registerBlockNumberNotifyHandler
22:05:11.132 [restartedMain] INFO  o.f.b.s.s.GroupManagerServiceImpl - [registerTransactionNotifyHandler,282] - registerTransactionNotifyHandler
22:05:11.140 [restartedMain] INFO  o.f.bcos.sdk.BcosSDK - [<init>,98] - create BcosSDK, create groupManagerService success
22:05:11.227 [restartedMain] INFO  o.f.b.s.amop.AmopImp - [sendSubscribe,216] - update subscribe inform 1 peers
22:05:11.228 [restartedMain] INFO  o.f.b.s.amop.AmopImp - [start,188] - amop module started
22:05:11.228 [restartedMain] INFO  o.f.b.s.amop.AmopImp - [sendSubscribe,216] - update subscribe inform 1 peers
22:05:11.229 [restartedMain] INFO  o.f.bcos.sdk.BcosSDK - [<init>,103] - create BcosSDK, create Amop success
22:05:11.264 [restartedMain] INFO  o.f.b.s.c.Client - [build,114] - build client success for group 1, crypto type 0
22:05:11.264 [restartedMain] INFO  o.f.bcos.sdk.BcosSDK - [getClient,178] - create client for group 1 success
22:05:11.269 [restartedMain] INFO  c.f.I.c.SdkBeanConfig - [client,55] - Chain connect successful. Current block number 445
22:05:12.176 [restartedMain] INFO  c.a.d.p.DruidDataSource - [init,998] - {dataSource-3} inited
22:05:13.388 [restartedMain] INFO  o.q.i.StdSchedulerFactory - [instantiate,1220] - Using default implementation for ThreadExecutor
22:05:13.392 [restartedMain] INFO  o.q.c.SchedulerSignalerImpl - [<init>,61] - Initialized Scheduler Signaller of type: class org.quartz.core.SchedulerSignalerImpl
22:05:13.393 [restartedMain] INFO  o.q.c.QuartzScheduler - [<init>,229] - Quartz Scheduler v.2.3.2 created.
22:05:13.393 [restartedMain] INFO  o.q.c.QuartzScheduler - [initialize,294] - Scheduler meta-data: Quartz Scheduler (v2.3.2) 'RuoyiScheduler' with instanceId 'WenCheng-Pro161765375513390'
  Scheduler class: 'org.quartz.core.QuartzScheduler' - running locally.
  NOT STARTED.
  Currently in standby mode.
  Number of jobs executed: 0
  Using thread pool 'org.quartz.simpl.SimpleThreadPool' - with 20 threads.
  Using job-store 'org.springframework.scheduling.quartz.LocalDataSourceJobStore' - which supports persistence. and is clustered.

22:05:13.393 [restartedMain] INFO  o.q.i.StdSchedulerFactory - [instantiate,1374] - Quartz scheduler 'RuoyiScheduler' initialized from an externally provided properties instance.
22:05:13.394 [restartedMain] INFO  o.q.i.StdSchedulerFactory - [instantiate,1378] - Quartz scheduler version: 2.3.2
22:05:13.394 [restartedMain] INFO  o.q.c.QuartzScheduler - [setJobFactory,2293] - JobFactory set to: org.springframework.scheduling.quartz.AdaptableJobFactory@5208d0d9
22:05:15.724 [restartedMain] INFO  c.f.a.u.DeviceStatusUtil - [lambda$initializeSensorCommands$2,100] - 加载传感器指令 - 类型：1，指令：01 03 00 00 00 02 C4 0B
22:05:15.724 [restartedMain] INFO  c.f.a.u.DeviceStatusUtil - [lambda$initializeSensorCommands$2,100] - 加载传感器指令 - 类型：2，指令：02 03 01 F4 00 08 04 31
22:05:15.724 [restartedMain] INFO  c.f.a.u.DeviceStatusUtil - [lambda$initializeSensorCommands$2,100] - 加载传感器指令 - 类型：3，指令：03 03 00 00 00 01 85 E8
22:05:15.725 [restartedMain] INFO  c.f.a.u.DeviceStatusUtil - [lambda$initializeSensorCommands$2,100] - 加载传感器指令 - 类型：4，指令：04 03 00 00 00 02 C4 5E
22:05:15.725 [restartedMain] INFO  c.f.a.u.DeviceStatusUtil - [lambda$initializeSensorCommands$2,100] - 加载传感器指令 - 类型：5，指令：05 03 00 00 00 01 85 8E
22:05:15.725 [restartedMain] INFO  c.f.a.u.DeviceStatusUtil - [lambda$initializeSensorCommands$2,100] - 加载传感器指令 - 类型：6，指令：06 03 00 00 00 04 45 BE
22:05:15.725 [restartedMain] INFO  c.f.a.u.DeviceStatusUtil - [lambda$initializeSensorCommands$2,100] - 加载传感器指令 - 类型：8，指令：08 03 00 05 00 03 15 53
22:05:15.725 [restartedMain] INFO  c.f.a.u.DeviceStatusUtil - [lambda$initializeSensorCommands$2,100] - 加载传感器指令 - 类型：2452，指令：254
22:05:15.728 [restartedMain] INFO  c.f.a.u.ThresholdConfigUtil - [initializeThresholdConfig,57] - 传感器阈值配置初始化完成，共配置8个参数阈值
22:05:20.148 [restartedMain] INFO  o.a.c.h.Http11NioProtocol - [log,173] - Starting ProtocolHandler ["http-nio-8081"]
22:05:20.991 [restartedMain] INFO  c.f.FrogApplication - [logStarted,61] - Started FrogApplication in 21.119 seconds (JVM running for 2927.746)
22:05:22.007 [Quartz Scheduler [RuoyiScheduler]] INFO  o.q.c.QuartzScheduler - [start,547] - Scheduler RuoyiScheduler_$_WenCheng-Pro161765375513390 started.
22:05:43.601 [Thread-124] INFO  o.q.c.QuartzScheduler - [standby,585] - Scheduler RuoyiScheduler_$_WenCheng-Pro161765375513390 paused.
22:05:44.705 [Thread-124] INFO  o.q.c.QuartzScheduler - [shutdown,666] - Scheduler RuoyiScheduler_$_WenCheng-Pro161765375513390 shutting down.
22:05:44.705 [Thread-124] INFO  o.q.c.QuartzScheduler - [standby,585] - Scheduler RuoyiScheduler_$_WenCheng-Pro161765375513390 paused.
22:05:44.706 [Thread-124] INFO  o.q.c.QuartzScheduler - [shutdown,740] - Scheduler RuoyiScheduler_$_WenCheng-Pro161765375513390 shutdown complete.
22:05:44.706 [Thread-124] INFO  sys-user - [shutdownAsyncManager,31] - ====关闭后台任务任务线程池====
22:05:44.714 [Thread-124] INFO  c.a.d.p.DruidDataSource - [close,2071] - {dataSource-3} closing ...
22:05:44.723 [Thread-124] INFO  c.a.d.p.DruidDataSource - [close,2144] - {dataSource-3} closed
22:05:46.140 [restartedMain] INFO  c.f.FrogApplication - [logStarting,55] - Starting FrogApplication using Java 1.8.0_333 on WenCheng-Pro16 with PID 23392 (D:\zhnlrjcs\znwl-agriculture-server-no\frog-admin\target\classes started by Wen Yi in D:\zhnlrjcs\znwl-agriculture-server-no)
22:05:46.142 [restartedMain] INFO  c.f.FrogApplication - [logStartupProfileInfo,659] - No active profile set, falling back to default profiles: default
22:05:52.627 [restartedMain] INFO  o.a.c.h.Http11NioProtocol - [log,173] - Initializing ProtocolHandler ["http-nio-8081"]
22:05:52.627 [restartedMain] INFO  o.a.c.c.StandardService - [log,173] - Starting service [Tomcat]
22:05:52.627 [restartedMain] INFO  o.a.c.c.StandardEngine - [log,173] - Starting Servlet engine: [Apache Tomcat/9.0.54]
22:05:52.762 [restartedMain] INFO  o.a.c.c.C.[.[.[/] - [log,173] - Initializing Spring embedded WebApplicationContext
22:05:55.736 [restartedMain] INFO  o.f.b.s.n.ConnectionManager - [<init>,88] -  all connections, size: 1, list: [ConnectionInfo{host='192.168.1.5', port=20200}]
22:05:55.736 [restartedMain] INFO  o.f.b.s.n.NetworkImp - [start,167] - 
* TRACE INFORMATION:
----------------------------
====> STEP1: try to connect nodes with ecdsa context...

22:05:55.736 [restartedMain] INFO  o.f.b.s.n.NetworkImp - [start,174] - ====> <==== STEP1-1: Load certificates for ecdsa context success..., start connManager with ECDSA sslContext
22:05:55.765 [restartedMain] INFO  o.f.b.s.n.ConnectionManager - [initSslContext,238] -  build ECDSA ssl context with configured certificates 
22:05:55.783 [restartedMain] INFO  o.f.b.s.n.ConnectionManager - [checkConnectionResult,402] -  ssl handshake success 192.168.1.5:20200
22:05:55.783 [nioEventLoopGroup-19-1] INFO  o.f.b.s.n.ChannelHandler - [userEventTriggered,73] -  handshake success, host: 192.168.1.5, port: 20200, ctx: 113581773
22:05:55.794 [nioEventLoopGroup-19-1] INFO  o.f.b.s.c.ChannelImp - [onResponse,225] -  node: ClientVersion{version='2.11.0', supportedVersion='2.11.0', chainId='1', buildTime='20240520 01:38:47', buildType='Linux/g++/Release', gitBranch='HEAD', gitCommitHash='bee4dda033297443f02774973445d954933db885'}, content: {"id":4,"jsonrpc":"2.0","result":{"Build Time":"20240520 01:38:47","Build Type":"Linux/g++/Release","Chain Id":"1","FISCO-BCOS Version":"2.11.0","Git Branch":"HEAD","Git Commit Hash":"bee4dda033297443f02774973445d954933db885","Supported Version":"2.11.0"}}

22:05:55.795 [nioEventLoopGroup-19-1] INFO  o.f.b.s.c.ChannelImp - [onResponse,233] -  support channel handshake node
22:05:55.796 [nioEventLoopGroup-19-1] INFO  o.f.b.s.c.ChannelImp - [onResponse,309] -  channel protocol handshake success, set socket channel protocol, host: 192.168.1.5:20200, channel protocol: ChannelProtocol [protocol=3, nodeVersion=2.11.0, EnumProtocol=VERSION_3]
22:05:55.823 [restartedMain] INFO  o.f.b.s.c.ChannelImp - [checkConnectionsToStartPeriodTask,126] -  Connect to  nodes: 192.168.1.5:20200, 
22:05:55.823 [restartedMain] INFO  o.f.bcos.sdk.BcosSDK - [<init>,77] - create BcosSDK, start channel success, cryptoType: 0
22:05:55.823 [restartedMain] INFO  o.f.bcos.sdk.BcosSDK - [<init>,87] - create BcosSDK, start channel succ, channelProcessorThreadSize: 16, receiptProcessorThreadSize: 16
22:05:55.824 [restartedMain] INFO  o.f.b.s.s.GroupManagerServiceImpl - [registerBlockNumberNotifyHandler,260] - registerBlockNumberNotifyHandler
22:05:55.824 [restartedMain] INFO  o.f.b.s.s.GroupManagerServiceImpl - [registerTransactionNotifyHandler,282] - registerTransactionNotifyHandler
22:05:55.829 [restartedMain] INFO  o.f.bcos.sdk.BcosSDK - [<init>,98] - create BcosSDK, create groupManagerService success
22:05:55.902 [restartedMain] INFO  o.f.b.s.amop.AmopImp - [sendSubscribe,216] - update subscribe inform 1 peers
22:05:55.904 [restartedMain] INFO  o.f.b.s.amop.AmopImp - [start,188] - amop module started
22:05:55.904 [restartedMain] INFO  o.f.b.s.amop.AmopImp - [sendSubscribe,216] - update subscribe inform 1 peers
22:05:55.904 [restartedMain] INFO  o.f.bcos.sdk.BcosSDK - [<init>,103] - create BcosSDK, create Amop success
22:05:55.947 [restartedMain] INFO  o.f.b.s.c.Client - [build,114] - build client success for group 1, crypto type 0
22:05:55.947 [restartedMain] INFO  o.f.bcos.sdk.BcosSDK - [getClient,178] - create client for group 1 success
22:05:55.953 [restartedMain] INFO  c.f.I.c.SdkBeanConfig - [client,55] - Chain connect successful. Current block number 445
22:05:56.861 [restartedMain] INFO  c.a.d.p.DruidDataSource - [init,998] - {dataSource-4} inited
22:05:57.989 [restartedMain] INFO  o.q.i.StdSchedulerFactory - [instantiate,1220] - Using default implementation for ThreadExecutor
22:05:57.993 [restartedMain] INFO  o.q.c.SchedulerSignalerImpl - [<init>,61] - Initialized Scheduler Signaller of type: class org.quartz.core.SchedulerSignalerImpl
22:05:57.993 [restartedMain] INFO  o.q.c.QuartzScheduler - [<init>,229] - Quartz Scheduler v.2.3.2 created.
22:05:57.995 [restartedMain] INFO  o.q.c.QuartzScheduler - [initialize,294] - Scheduler meta-data: Quartz Scheduler (v2.3.2) 'RuoyiScheduler' with instanceId 'WenCheng-Pro161765375557992'
  Scheduler class: 'org.quartz.core.QuartzScheduler' - running locally.
  NOT STARTED.
  Currently in standby mode.
  Number of jobs executed: 0
  Using thread pool 'org.quartz.simpl.SimpleThreadPool' - with 20 threads.
  Using job-store 'org.springframework.scheduling.quartz.LocalDataSourceJobStore' - which supports persistence. and is clustered.

22:05:57.995 [restartedMain] INFO  o.q.i.StdSchedulerFactory - [instantiate,1374] - Quartz scheduler 'RuoyiScheduler' initialized from an externally provided properties instance.
22:05:57.995 [restartedMain] INFO  o.q.i.StdSchedulerFactory - [instantiate,1378] - Quartz scheduler version: 2.3.2
22:05:57.995 [restartedMain] INFO  o.q.c.QuartzScheduler - [setJobFactory,2293] - JobFactory set to: org.springframework.scheduling.quartz.AdaptableJobFactory@4936eff4
22:06:00.054 [restartedMain] INFO  c.f.a.u.DeviceStatusUtil - [lambda$initializeSensorCommands$2,100] - 加载传感器指令 - 类型：1，指令：01 03 00 00 00 02 C4 0B
22:06:00.054 [restartedMain] INFO  c.f.a.u.DeviceStatusUtil - [lambda$initializeSensorCommands$2,100] - 加载传感器指令 - 类型：2，指令：02 03 01 F4 00 08 04 31
22:06:00.055 [restartedMain] INFO  c.f.a.u.DeviceStatusUtil - [lambda$initializeSensorCommands$2,100] - 加载传感器指令 - 类型：3，指令：03 03 00 00 00 01 85 E8
22:06:00.055 [restartedMain] INFO  c.f.a.u.DeviceStatusUtil - [lambda$initializeSensorCommands$2,100] - 加载传感器指令 - 类型：4，指令：04 03 00 00 00 02 C4 5E
22:06:00.055 [restartedMain] INFO  c.f.a.u.DeviceStatusUtil - [lambda$initializeSensorCommands$2,100] - 加载传感器指令 - 类型：5，指令：05 03 00 00 00 01 85 8E
22:06:00.055 [restartedMain] INFO  c.f.a.u.DeviceStatusUtil - [lambda$initializeSensorCommands$2,100] - 加载传感器指令 - 类型：6，指令：06 03 00 00 00 04 45 BE
22:06:00.055 [restartedMain] INFO  c.f.a.u.DeviceStatusUtil - [lambda$initializeSensorCommands$2,100] - 加载传感器指令 - 类型：8，指令：08 03 00 05 00 03 15 53
22:06:00.055 [restartedMain] INFO  c.f.a.u.DeviceStatusUtil - [lambda$initializeSensorCommands$2,100] - 加载传感器指令 - 类型：2452，指令：254
22:06:00.058 [restartedMain] INFO  c.f.a.u.ThresholdConfigUtil - [initializeThresholdConfig,57] - 传感器阈值配置初始化完成，共配置8个参数阈值
22:06:04.537 [restartedMain] INFO  o.a.c.h.Http11NioProtocol - [log,173] - Starting ProtocolHandler ["http-nio-8081"]
22:06:04.546 [restartedMain] INFO  o.q.c.QuartzScheduler - [shutdown,666] - Scheduler RuoyiScheduler_$_WenCheng-Pro161765375557992 shutting down.
22:06:04.546 [restartedMain] INFO  o.q.c.QuartzScheduler - [standby,585] - Scheduler RuoyiScheduler_$_WenCheng-Pro161765375557992 paused.
22:06:04.546 [restartedMain] INFO  o.q.c.QuartzScheduler - [shutdown,740] - Scheduler RuoyiScheduler_$_WenCheng-Pro161765375557992 shutdown complete.
22:06:04.548 [restartedMain] INFO  sys-user - [shutdownAsyncManager,31] - ====关闭后台任务任务线程池====
22:06:04.556 [restartedMain] INFO  c.a.d.p.DruidDataSource - [close,2071] - {dataSource-4} closing ...
22:06:04.559 [restartedMain] INFO  c.a.d.p.DruidDataSource - [close,2144] - {dataSource-4} closed
22:06:04.676 [restartedMain] INFO  o.a.c.h.Http11NioProtocol - [log,173] - Pausing ProtocolHandler ["http-nio-8081"]
22:06:04.676 [restartedMain] INFO  o.a.c.c.StandardService - [log,173] - Stopping service [Tomcat]
22:06:04.686 [restartedMain] INFO  o.a.c.h.Http11NioProtocol - [log,173] - Stopping ProtocolHandler ["http-nio-8081"]
22:06:04.686 [restartedMain] INFO  o.a.c.h.Http11NioProtocol - [log,173] - Destroying ProtocolHandler ["http-nio-8081"]
22:07:20.726 [restartedMain] INFO  c.f.FrogApplication - [logStarting,55] - Starting FrogApplication using Java 1.8.0_333 on WenCheng-Pro16 with PID 23392 (D:\zhnlrjcs\znwl-agriculture-server-no\frog-admin\target\classes started by Wen Yi in D:\zhnlrjcs\znwl-agriculture-server-no)
22:07:20.726 [restartedMain] INFO  c.f.FrogApplication - [logStartupProfileInfo,659] - No active profile set, falling back to default profiles: default
22:07:27.963 [restartedMain] INFO  o.a.c.h.Http11NioProtocol - [log,173] - Initializing ProtocolHandler ["http-nio-8081"]
22:07:27.963 [restartedMain] INFO  o.a.c.c.StandardService - [log,173] - Starting service [Tomcat]
22:07:27.964 [restartedMain] INFO  o.a.c.c.StandardEngine - [log,173] - Starting Servlet engine: [Apache Tomcat/9.0.54]
22:07:28.129 [restartedMain] INFO  o.a.c.c.C.[.[.[/] - [log,173] - Initializing Spring embedded WebApplicationContext
22:07:31.426 [restartedMain] INFO  o.f.b.s.n.ConnectionManager - [<init>,88] -  all connections, size: 1, list: [ConnectionInfo{host='192.168.1.5', port=20200}]
22:07:31.427 [restartedMain] INFO  o.f.b.s.n.NetworkImp - [start,167] - 
* TRACE INFORMATION:
----------------------------
====> STEP1: try to connect nodes with ecdsa context...

22:07:31.427 [restartedMain] INFO  o.f.b.s.n.NetworkImp - [start,174] - ====> <==== STEP1-1: Load certificates for ecdsa context success..., start connManager with ECDSA sslContext
22:07:31.460 [restartedMain] INFO  o.f.b.s.n.ConnectionManager - [initSslContext,238] -  build ECDSA ssl context with configured certificates 
22:07:31.479 [restartedMain] INFO  o.f.b.s.n.ConnectionManager - [checkConnectionResult,402] -  ssl handshake success 192.168.1.5:20200
22:07:31.479 [nioEventLoopGroup-23-1] INFO  o.f.b.s.n.ChannelHandler - [userEventTriggered,73] -  handshake success, host: 192.168.1.5, port: 20200, ctx: 264515619
22:07:31.485 [nioEventLoopGroup-23-1] INFO  o.f.b.s.c.ChannelImp - [onResponse,225] -  node: ClientVersion{version='2.11.0', supportedVersion='2.11.0', chainId='1', buildTime='20240520 01:38:47', buildType='Linux/g++/Release', gitBranch='HEAD', gitCommitHash='bee4dda033297443f02774973445d954933db885'}, content: {"id":5,"jsonrpc":"2.0","result":{"Build Time":"20240520 01:38:47","Build Type":"Linux/g++/Release","Chain Id":"1","FISCO-BCOS Version":"2.11.0","Git Branch":"HEAD","Git Commit Hash":"bee4dda033297443f02774973445d954933db885","Supported Version":"2.11.0"}}

22:07:31.487 [nioEventLoopGroup-23-1] INFO  o.f.b.s.c.ChannelImp - [onResponse,233] -  support channel handshake node
22:07:31.490 [nioEventLoopGroup-23-1] INFO  o.f.b.s.c.ChannelImp - [onResponse,309] -  channel protocol handshake success, set socket channel protocol, host: 192.168.1.5:20200, channel protocol: ChannelProtocol [protocol=3, nodeVersion=2.11.0, EnumProtocol=VERSION_3]
22:07:31.525 [restartedMain] INFO  o.f.b.s.c.ChannelImp - [checkConnectionsToStartPeriodTask,126] -  Connect to  nodes: 192.168.1.5:20200, 
22:07:31.525 [restartedMain] INFO  o.f.bcos.sdk.BcosSDK - [<init>,77] - create BcosSDK, start channel success, cryptoType: 0
22:07:31.526 [restartedMain] INFO  o.f.bcos.sdk.BcosSDK - [<init>,87] - create BcosSDK, start channel succ, channelProcessorThreadSize: 16, receiptProcessorThreadSize: 16
22:07:31.526 [restartedMain] INFO  o.f.b.s.s.GroupManagerServiceImpl - [registerBlockNumberNotifyHandler,260] - registerBlockNumberNotifyHandler
22:07:31.526 [restartedMain] INFO  o.f.b.s.s.GroupManagerServiceImpl - [registerTransactionNotifyHandler,282] - registerTransactionNotifyHandler
22:07:31.532 [restartedMain] INFO  o.f.bcos.sdk.BcosSDK - [<init>,98] - create BcosSDK, create groupManagerService success
22:07:31.640 [restartedMain] INFO  o.f.b.s.amop.AmopImp - [sendSubscribe,216] - update subscribe inform 1 peers
22:07:31.641 [restartedMain] INFO  o.f.b.s.amop.AmopImp - [start,188] - amop module started
22:07:31.641 [restartedMain] INFO  o.f.b.s.amop.AmopImp - [sendSubscribe,216] - update subscribe inform 1 peers
22:07:31.641 [restartedMain] INFO  o.f.bcos.sdk.BcosSDK - [<init>,103] - create BcosSDK, create Amop success
22:07:31.682 [restartedMain] INFO  o.f.b.s.c.Client - [build,114] - build client success for group 1, crypto type 0
22:07:31.683 [restartedMain] INFO  o.f.bcos.sdk.BcosSDK - [getClient,178] - create client for group 1 success
22:07:31.689 [restartedMain] INFO  c.f.I.c.SdkBeanConfig - [client,55] - Chain connect successful. Current block number 445
22:07:32.664 [restartedMain] INFO  c.a.d.p.DruidDataSource - [init,998] - {dataSource-5} inited
22:07:33.889 [restartedMain] INFO  o.q.i.StdSchedulerFactory - [instantiate,1220] - Using default implementation for ThreadExecutor
22:07:33.894 [restartedMain] INFO  o.q.c.SchedulerSignalerImpl - [<init>,61] - Initialized Scheduler Signaller of type: class org.quartz.core.SchedulerSignalerImpl
22:07:33.894 [restartedMain] INFO  o.q.c.QuartzScheduler - [<init>,229] - Quartz Scheduler v.2.3.2 created.
22:07:33.894 [restartedMain] INFO  o.q.c.QuartzScheduler - [initialize,294] - Scheduler meta-data: Quartz Scheduler (v2.3.2) 'RuoyiScheduler' with instanceId 'WenCheng-Pro161765375653891'
  Scheduler class: 'org.quartz.core.QuartzScheduler' - running locally.
  NOT STARTED.
  Currently in standby mode.
  Number of jobs executed: 0
  Using thread pool 'org.quartz.simpl.SimpleThreadPool' - with 20 threads.
  Using job-store 'org.springframework.scheduling.quartz.LocalDataSourceJobStore' - which supports persistence. and is clustered.

22:07:33.894 [restartedMain] INFO  o.q.i.StdSchedulerFactory - [instantiate,1374] - Quartz scheduler 'RuoyiScheduler' initialized from an externally provided properties instance.
22:07:33.895 [restartedMain] INFO  o.q.i.StdSchedulerFactory - [instantiate,1378] - Quartz scheduler version: 2.3.2
22:07:33.895 [restartedMain] INFO  o.q.c.QuartzScheduler - [setJobFactory,2293] - JobFactory set to: org.springframework.scheduling.quartz.AdaptableJobFactory@57f4bd2a
22:07:36.127 [restartedMain] INFO  c.f.a.u.DeviceStatusUtil - [lambda$initializeSensorCommands$2,100] - 加载传感器指令 - 类型：1，指令：01 03 00 00 00 02 C4 0B
22:07:36.127 [restartedMain] INFO  c.f.a.u.DeviceStatusUtil - [lambda$initializeSensorCommands$2,100] - 加载传感器指令 - 类型：2，指令：02 03 01 F4 00 08 04 31
22:07:36.127 [restartedMain] INFO  c.f.a.u.DeviceStatusUtil - [lambda$initializeSensorCommands$2,100] - 加载传感器指令 - 类型：3，指令：03 03 00 00 00 01 85 E8
22:07:36.127 [restartedMain] INFO  c.f.a.u.DeviceStatusUtil - [lambda$initializeSensorCommands$2,100] - 加载传感器指令 - 类型：4，指令：04 03 00 00 00 02 C4 5E
22:07:36.129 [restartedMain] INFO  c.f.a.u.DeviceStatusUtil - [lambda$initializeSensorCommands$2,100] - 加载传感器指令 - 类型：5，指令：05 03 00 00 00 01 85 8E
22:07:36.129 [restartedMain] INFO  c.f.a.u.DeviceStatusUtil - [lambda$initializeSensorCommands$2,100] - 加载传感器指令 - 类型：6，指令：06 03 00 00 00 04 45 BE
22:07:36.129 [restartedMain] INFO  c.f.a.u.DeviceStatusUtil - [lambda$initializeSensorCommands$2,100] - 加载传感器指令 - 类型：8，指令：08 03 00 05 00 03 15 53
22:07:36.129 [restartedMain] INFO  c.f.a.u.DeviceStatusUtil - [lambda$initializeSensorCommands$2,100] - 加载传感器指令 - 类型：2452，指令：254
22:07:36.132 [restartedMain] INFO  c.f.a.u.ThresholdConfigUtil - [initializeThresholdConfig,57] - 传感器阈值配置初始化完成，共配置8个参数阈值
22:07:40.643 [restartedMain] INFO  o.a.c.h.Http11NioProtocol - [log,173] - Starting ProtocolHandler ["http-nio-8081"]
22:07:41.465 [restartedMain] INFO  c.f.FrogApplication - [logStarted,61] - Started FrogApplication in 21.027 seconds (JVM running for 3068.22)
22:07:42.477 [Quartz Scheduler [RuoyiScheduler]] INFO  o.q.c.QuartzScheduler - [start,547] - Scheduler RuoyiScheduler_$_WenCheng-Pro161765375653891 started.
22:09:49.094 [Thread-135] INFO  o.q.c.QuartzScheduler - [standby,585] - Scheduler RuoyiScheduler_$_WenCheng-Pro161765375653891 paused.
22:09:50.412 [Thread-135] INFO  o.q.c.QuartzScheduler - [shutdown,666] - Scheduler RuoyiScheduler_$_WenCheng-Pro161765375653891 shutting down.
22:09:50.412 [Thread-135] INFO  o.q.c.QuartzScheduler - [standby,585] - Scheduler RuoyiScheduler_$_WenCheng-Pro161765375653891 paused.
22:09:50.413 [Thread-135] INFO  o.q.c.QuartzScheduler - [shutdown,740] - Scheduler RuoyiScheduler_$_WenCheng-Pro161765375653891 shutdown complete.
22:09:50.413 [Thread-135] INFO  sys-user - [shutdownAsyncManager,31] - ====关闭后台任务任务线程池====
22:09:50.425 [Thread-135] INFO  c.a.d.p.DruidDataSource - [close,2071] - {dataSource-5} closing ...
22:09:50.436 [Thread-135] INFO  c.a.d.p.DruidDataSource - [close,2144] - {dataSource-5} closed
22:09:52.306 [restartedMain] INFO  c.f.FrogApplication - [logStarting,55] - Starting FrogApplication using Java 1.8.0_333 on WenCheng-Pro16 with PID 23392 (D:\zhnlrjcs\znwl-agriculture-server-no\frog-admin\target\classes started by Wen Yi in D:\zhnlrjcs\znwl-agriculture-server-no)
22:09:52.307 [restartedMain] INFO  c.f.FrogApplication - [logStartupProfileInfo,659] - No active profile set, falling back to default profiles: default
22:09:59.460 [restartedMain] INFO  o.a.c.h.Http11NioProtocol - [log,173] - Initializing ProtocolHandler ["http-nio-8081"]
22:09:59.460 [restartedMain] INFO  o.a.c.c.StandardService - [log,173] - Starting service [Tomcat]
22:09:59.460 [restartedMain] INFO  o.a.c.c.StandardEngine - [log,173] - Starting Servlet engine: [Apache Tomcat/9.0.54]
22:09:59.614 [restartedMain] INFO  o.a.c.c.C.[.[.[/] - [log,173] - Initializing Spring embedded WebApplicationContext
22:10:03.062 [restartedMain] INFO  o.f.b.s.n.ConnectionManager - [<init>,88] -  all connections, size: 1, list: [ConnectionInfo{host='192.168.1.5', port=20200}]
22:10:03.063 [restartedMain] INFO  o.f.b.s.n.NetworkImp - [start,167] - 
* TRACE INFORMATION:
----------------------------
====> STEP1: try to connect nodes with ecdsa context...

22:10:03.063 [restartedMain] INFO  o.f.b.s.n.NetworkImp - [start,174] - ====> <==== STEP1-1: Load certificates for ecdsa context success..., start connManager with ECDSA sslContext
22:10:03.094 [restartedMain] INFO  o.f.b.s.n.ConnectionManager - [initSslContext,238] -  build ECDSA ssl context with configured certificates 
22:10:03.111 [nioEventLoopGroup-27-1] INFO  o.f.b.s.n.ChannelHandler - [userEventTriggered,73] -  handshake success, host: 192.168.1.5, port: 20200, ctx: 2021761038
22:10:03.111 [restartedMain] INFO  o.f.b.s.n.ConnectionManager - [checkConnectionResult,402] -  ssl handshake success 192.168.1.5:20200
22:10:03.117 [nioEventLoopGroup-27-1] INFO  o.f.b.s.c.ChannelImp - [onResponse,225] -  node: ClientVersion{version='2.11.0', supportedVersion='2.11.0', chainId='1', buildTime='20240520 01:38:47', buildType='Linux/g++/Release', gitBranch='HEAD', gitCommitHash='bee4dda033297443f02774973445d954933db885'}, content: {"id":6,"jsonrpc":"2.0","result":{"Build Time":"20240520 01:38:47","Build Type":"Linux/g++/Release","Chain Id":"1","FISCO-BCOS Version":"2.11.0","Git Branch":"HEAD","Git Commit Hash":"bee4dda033297443f02774973445d954933db885","Supported Version":"2.11.0"}}

22:10:03.117 [nioEventLoopGroup-27-1] INFO  o.f.b.s.c.ChannelImp - [onResponse,233] -  support channel handshake node
22:10:03.118 [nioEventLoopGroup-27-1] INFO  o.f.b.s.c.ChannelImp - [onResponse,309] -  channel protocol handshake success, set socket channel protocol, host: 192.168.1.5:20200, channel protocol: ChannelProtocol [protocol=3, nodeVersion=2.11.0, EnumProtocol=VERSION_3]
22:10:03.144 [restartedMain] INFO  o.f.b.s.c.ChannelImp - [checkConnectionsToStartPeriodTask,126] -  Connect to  nodes: 192.168.1.5:20200, 
22:10:03.144 [restartedMain] INFO  o.f.bcos.sdk.BcosSDK - [<init>,77] - create BcosSDK, start channel success, cryptoType: 0
22:10:03.144 [restartedMain] INFO  o.f.bcos.sdk.BcosSDK - [<init>,87] - create BcosSDK, start channel succ, channelProcessorThreadSize: 16, receiptProcessorThreadSize: 16
22:10:03.146 [restartedMain] INFO  o.f.b.s.s.GroupManagerServiceImpl - [registerBlockNumberNotifyHandler,260] - registerBlockNumberNotifyHandler
22:10:03.146 [restartedMain] INFO  o.f.b.s.s.GroupManagerServiceImpl - [registerTransactionNotifyHandler,282] - registerTransactionNotifyHandler
22:10:03.150 [restartedMain] INFO  o.f.bcos.sdk.BcosSDK - [<init>,98] - create BcosSDK, create groupManagerService success
22:10:03.231 [restartedMain] INFO  o.f.b.s.amop.AmopImp - [sendSubscribe,216] - update subscribe inform 1 peers
22:10:03.232 [restartedMain] INFO  o.f.b.s.amop.AmopImp - [start,188] - amop module started
22:10:03.232 [restartedMain] INFO  o.f.b.s.amop.AmopImp - [sendSubscribe,216] - update subscribe inform 1 peers
22:10:03.232 [restartedMain] INFO  o.f.bcos.sdk.BcosSDK - [<init>,103] - create BcosSDK, create Amop success
22:10:03.273 [restartedMain] INFO  o.f.b.s.c.Client - [build,114] - build client success for group 1, crypto type 0
22:10:03.273 [restartedMain] INFO  o.f.bcos.sdk.BcosSDK - [getClient,178] - create client for group 1 success
22:10:03.279 [restartedMain] INFO  c.f.I.c.SdkBeanConfig - [client,55] - Chain connect successful. Current block number 445
22:10:04.115 [restartedMain] INFO  c.a.d.p.DruidDataSource - [init,998] - {dataSource-6} inited
22:10:05.246 [restartedMain] INFO  o.q.i.StdSchedulerFactory - [instantiate,1220] - Using default implementation for ThreadExecutor
22:10:05.251 [restartedMain] INFO  o.q.c.SchedulerSignalerImpl - [<init>,61] - Initialized Scheduler Signaller of type: class org.quartz.core.SchedulerSignalerImpl
22:10:05.251 [restartedMain] INFO  o.q.c.QuartzScheduler - [<init>,229] - Quartz Scheduler v.2.3.2 created.
22:10:05.252 [restartedMain] INFO  o.q.c.QuartzScheduler - [initialize,294] - Scheduler meta-data: Quartz Scheduler (v2.3.2) 'RuoyiScheduler' with instanceId 'WenCheng-Pro161765375805248'
  Scheduler class: 'org.quartz.core.QuartzScheduler' - running locally.
  NOT STARTED.
  Currently in standby mode.
  Number of jobs executed: 0
  Using thread pool 'org.quartz.simpl.SimpleThreadPool' - with 20 threads.
  Using job-store 'org.springframework.scheduling.quartz.LocalDataSourceJobStore' - which supports persistence. and is clustered.

22:10:05.252 [restartedMain] INFO  o.q.i.StdSchedulerFactory - [instantiate,1374] - Quartz scheduler 'RuoyiScheduler' initialized from an externally provided properties instance.
22:10:05.252 [restartedMain] INFO  o.q.i.StdSchedulerFactory - [instantiate,1378] - Quartz scheduler version: 2.3.2
22:10:05.252 [restartedMain] INFO  o.q.c.QuartzScheduler - [setJobFactory,2293] - JobFactory set to: org.springframework.scheduling.quartz.AdaptableJobFactory@4755f991
22:10:07.544 [restartedMain] INFO  c.f.a.u.DeviceStatusUtil - [lambda$initializeSensorCommands$2,100] - 加载传感器指令 - 类型：1，指令：01 03 00 00 00 02 C4 0B
22:10:07.544 [restartedMain] INFO  c.f.a.u.DeviceStatusUtil - [lambda$initializeSensorCommands$2,100] - 加载传感器指令 - 类型：2，指令：02 03 01 F4 00 08 04 31
22:10:07.544 [restartedMain] INFO  c.f.a.u.DeviceStatusUtil - [lambda$initializeSensorCommands$2,100] - 加载传感器指令 - 类型：3，指令：03 03 00 00 00 01 85 E8
22:10:07.544 [restartedMain] INFO  c.f.a.u.DeviceStatusUtil - [lambda$initializeSensorCommands$2,100] - 加载传感器指令 - 类型：4，指令：04 03 00 00 00 02 C4 5E
22:10:07.545 [restartedMain] INFO  c.f.a.u.DeviceStatusUtil - [lambda$initializeSensorCommands$2,100] - 加载传感器指令 - 类型：5，指令：05 03 00 00 00 01 85 8E
22:10:07.545 [restartedMain] INFO  c.f.a.u.DeviceStatusUtil - [lambda$initializeSensorCommands$2,100] - 加载传感器指令 - 类型：6，指令：06 03 00 00 00 04 45 BE
22:10:07.545 [restartedMain] INFO  c.f.a.u.DeviceStatusUtil - [lambda$initializeSensorCommands$2,100] - 加载传感器指令 - 类型：8，指令：08 03 00 05 00 03 15 53
22:10:07.545 [restartedMain] INFO  c.f.a.u.DeviceStatusUtil - [lambda$initializeSensorCommands$2,100] - 加载传感器指令 - 类型：2452，指令：254
22:10:07.549 [restartedMain] INFO  c.f.a.u.ThresholdConfigUtil - [initializeThresholdConfig,57] - 传感器阈值配置初始化完成，共配置8个参数阈值
22:10:11.661 [restartedMain] INFO  o.a.c.h.Http11NioProtocol - [log,173] - Starting ProtocolHandler ["http-nio-8081"]
22:10:12.408 [restartedMain] INFO  c.f.FrogApplication - [logStarted,61] - Started FrogApplication in 20.379 seconds (JVM running for 3219.162)
22:10:13.423 [Quartz Scheduler [RuoyiScheduler]] INFO  o.q.c.QuartzScheduler - [start,547] - Scheduler RuoyiScheduler_$_WenCheng-Pro161765375805248 started.
22:17:57.061 [Thread-154] INFO  o.q.c.QuartzScheduler - [standby,585] - Scheduler RuoyiScheduler_$_WenCheng-Pro161765375805248 paused.
22:17:58.494 [Thread-154] INFO  o.q.c.QuartzScheduler - [shutdown,666] - Scheduler RuoyiScheduler_$_WenCheng-Pro161765375805248 shutting down.
22:17:58.497 [Thread-154] INFO  o.q.c.QuartzScheduler - [standby,585] - Scheduler RuoyiScheduler_$_WenCheng-Pro161765375805248 paused.
22:17:58.500 [Thread-154] INFO  o.q.c.QuartzScheduler - [shutdown,740] - Scheduler RuoyiScheduler_$_WenCheng-Pro161765375805248 shutdown complete.
22:17:58.501 [Thread-154] INFO  sys-user - [shutdownAsyncManager,31] - ====关闭后台任务任务线程池====
22:17:58.524 [Thread-154] INFO  c.a.d.p.DruidDataSource - [close,2071] - {dataSource-6} closing ...
22:17:58.534 [Thread-154] INFO  c.a.d.p.DruidDataSource - [close,2144] - {dataSource-6} closed
22:18:00.859 [restartedMain] INFO  c.f.FrogApplication - [logStarting,55] - Starting FrogApplication using Java 1.8.0_333 on WenCheng-Pro16 with PID 23392 (D:\zhnlrjcs\znwl-agriculture-server-no\frog-admin\target\classes started by Wen Yi in D:\zhnlrjcs\znwl-agriculture-server-no)
22:18:00.861 [restartedMain] INFO  c.f.FrogApplication - [logStartupProfileInfo,659] - No active profile set, falling back to default profiles: default
22:18:09.572 [restartedMain] INFO  o.a.c.h.Http11NioProtocol - [log,173] - Initializing ProtocolHandler ["http-nio-8081"]
22:18:09.572 [restartedMain] INFO  o.a.c.c.StandardService - [log,173] - Starting service [Tomcat]
22:18:09.572 [restartedMain] INFO  o.a.c.c.StandardEngine - [log,173] - Starting Servlet engine: [Apache Tomcat/9.0.54]
22:18:09.742 [restartedMain] INFO  o.a.c.c.C.[.[.[/] - [log,173] - Initializing Spring embedded WebApplicationContext
22:18:12.684 [restartedMain] INFO  c.a.d.p.DruidDataSource - [close,2071] - {dataSource-0} closing ...
22:18:12.693 [restartedMain] INFO  o.a.c.c.StandardService - [log,173] - Stopping service [Tomcat]
22:20:41.858 [restartedMain] INFO  c.f.FrogApplication - [logStarting,55] - Starting FrogApplication using Java 1.8.0_333 on WenCheng-Pro16 with PID 23392 (D:\zhnlrjcs\znwl-agriculture-server-no\frog-admin\target\classes started by Wen Yi in D:\zhnlrjcs\znwl-agriculture-server-no)
22:20:41.860 [restartedMain] INFO  c.f.FrogApplication - [logStartupProfileInfo,659] - No active profile set, falling back to default profiles: default
22:20:49.895 [restartedMain] INFO  o.a.c.h.Http11NioProtocol - [log,173] - Initializing ProtocolHandler ["http-nio-8081"]
22:20:49.896 [restartedMain] INFO  o.a.c.c.StandardService - [log,173] - Starting service [Tomcat]
22:20:49.896 [restartedMain] INFO  o.a.c.c.StandardEngine - [log,173] - Starting Servlet engine: [Apache Tomcat/9.0.54]
22:20:50.037 [restartedMain] INFO  o.a.c.c.C.[.[.[/] - [log,173] - Initializing Spring embedded WebApplicationContext
22:20:52.886 [restartedMain] INFO  c.a.d.p.DruidDataSource - [close,2071] - {dataSource-0} closing ...
22:20:52.897 [restartedMain] INFO  o.a.c.c.StandardService - [log,173] - Stopping service [Tomcat]
22:23:07.224 [restartedMain] INFO  c.f.FrogApplication - [logStarting,55] - Starting FrogApplication using Java 1.8.0_333 on WenCheng-Pro16 with PID 23392 (D:\zhnlrjcs\znwl-agriculture-server-no\frog-admin\target\classes started by Wen Yi in D:\zhnlrjcs\znwl-agriculture-server-no)
22:23:07.224 [restartedMain] INFO  c.f.FrogApplication - [logStartupProfileInfo,659] - No active profile set, falling back to default profiles: default
22:23:15.668 [restartedMain] INFO  o.a.c.h.Http11NioProtocol - [log,173] - Initializing ProtocolHandler ["http-nio-8081"]
22:23:15.668 [restartedMain] INFO  o.a.c.c.StandardService - [log,173] - Starting service [Tomcat]
22:23:15.668 [restartedMain] INFO  o.a.c.c.StandardEngine - [log,173] - Starting Servlet engine: [Apache Tomcat/9.0.54]
22:23:15.835 [restartedMain] INFO  o.a.c.c.C.[.[.[/] - [log,173] - Initializing Spring embedded WebApplicationContext
22:23:19.343 [restartedMain] INFO  c.a.d.p.DruidDataSource - [close,2071] - {dataSource-0} closing ...
22:23:19.369 [restartedMain] INFO  o.a.c.c.StandardService - [log,173] - Stopping service [Tomcat]
22:26:48.675 [restartedMain] INFO  c.f.FrogApplication - [logStarting,55] - Starting FrogApplication using Java 1.8.0_333 on WenCheng-Pro16 with PID 23392 (D:\zhnlrjcs\znwl-agriculture-server-no\frog-admin\target\classes started by Wen Yi in D:\zhnlrjcs\znwl-agriculture-server-no)
22:26:48.677 [restartedMain] INFO  c.f.FrogApplication - [logStartupProfileInfo,659] - No active profile set, falling back to default profiles: default
22:26:57.286 [restartedMain] INFO  o.a.c.h.Http11NioProtocol - [log,173] - Initializing ProtocolHandler ["http-nio-8081"]
22:26:57.286 [restartedMain] INFO  o.a.c.c.StandardService - [log,173] - Starting service [Tomcat]
22:26:57.287 [restartedMain] INFO  o.a.c.c.StandardEngine - [log,173] - Starting Servlet engine: [Apache Tomcat/9.0.54]
22:26:57.440 [restartedMain] INFO  o.a.c.c.C.[.[.[/] - [log,173] - Initializing Spring embedded WebApplicationContext
22:27:00.660 [restartedMain] INFO  c.a.d.p.DruidDataSource - [close,2071] - {dataSource-0} closing ...
22:27:00.677 [restartedMain] INFO  o.a.c.c.StandardService - [log,173] - Stopping service [Tomcat]
22:35:57.338 [restartedMain] INFO  c.f.FrogApplication - [logStarting,55] - Starting FrogApplication using Java 1.8.0_333 on WenCheng-Pro16 with PID 29540 (D:\zhnlrjcs\znwl-agriculture-server-no\frog-admin\target\classes started by Wen Yi in D:\zhnlrjcs\znwl-agriculture-server-no)
22:35:57.343 [restartedMain] INFO  c.f.FrogApplication - [logStartupProfileInfo,659] - No active profile set, falling back to default profiles: default
22:35:57.363 [background-preinit] INFO  o.h.v.i.util.Version - [<clinit>,21] - HV000001: Hibernate Validator 6.2.0.Final
22:36:05.945 [restartedMain] INFO  o.a.c.h.Http11NioProtocol - [log,173] - Initializing ProtocolHandler ["http-nio-8081"]
22:36:05.947 [restartedMain] INFO  o.a.c.c.StandardService - [log,173] - Starting service [Tomcat]
22:36:05.947 [restartedMain] INFO  o.a.c.c.StandardEngine - [log,173] - Starting Servlet engine: [Apache Tomcat/9.0.54]
22:36:06.329 [restartedMain] INFO  o.a.c.c.C.[.[.[/] - [log,173] - Initializing Spring embedded WebApplicationContext
22:36:13.228 [restartedMain] INFO  o.f.b.s.n.ConnectionManager - [<init>,88] -  all connections, size: 1, list: [ConnectionInfo{host='192.168.1.5', port=20200}]
22:36:13.228 [restartedMain] INFO  o.f.b.s.n.NetworkImp - [start,167] - 
* TRACE INFORMATION:
----------------------------
====> STEP1: try to connect nodes with ecdsa context...

22:36:13.229 [restartedMain] INFO  o.f.b.s.n.NetworkImp - [start,174] - ====> <==== STEP1-1: Load certificates for ecdsa context success..., start connManager with ECDSA sslContext
22:36:13.286 [restartedMain] INFO  o.f.b.s.n.ConnectionManager - [initSslContext,238] -  build ECDSA ssl context with configured certificates 
22:36:17.159 [restartedMain] INFO  o.f.b.s.n.ConnectionManager - [checkConnectionResult,402] -  ssl handshake success 192.168.1.5:20200
22:36:17.164 [nioEventLoopGroup-4-1] INFO  o.f.b.s.n.ChannelHandler - [userEventTriggered,73] -  handshake success, host: 192.168.1.5, port: 20200, ctx: 170940915
22:36:17.364 [nioEventLoopGroup-4-1] INFO  o.f.b.s.c.ChannelImp - [onResponse,225] -  node: ClientVersion{version='2.11.0', supportedVersion='2.11.0', chainId='1', buildTime='20240520 01:38:47', buildType='Linux/g++/Release', gitBranch='HEAD', gitCommitHash='bee4dda033297443f02774973445d954933db885'}, content: {"id":0,"jsonrpc":"2.0","result":{"Build Time":"20240520 01:38:47","Build Type":"Linux/g++/Release","Chain Id":"1","FISCO-BCOS Version":"2.11.0","Git Branch":"HEAD","Git Commit Hash":"bee4dda033297443f02774973445d954933db885","Supported Version":"2.11.0"}}

22:36:17.367 [nioEventLoopGroup-4-1] INFO  o.f.b.s.c.ChannelImp - [onResponse,233] -  support channel handshake node
22:36:17.377 [nioEventLoopGroup-4-1] INFO  o.f.b.s.c.ChannelImp - [onResponse,309] -  channel protocol handshake success, set socket channel protocol, host: 192.168.1.5:20200, channel protocol: ChannelProtocol [protocol=3, nodeVersion=2.11.0, EnumProtocol=VERSION_3]
22:36:17.387 [restartedMain] INFO  o.f.b.s.c.ChannelImp - [checkConnectionsToStartPeriodTask,126] -  Connect to  nodes: 192.168.1.5:20200, 
22:36:17.388 [restartedMain] INFO  o.f.bcos.sdk.BcosSDK - [<init>,77] - create BcosSDK, start channel success, cryptoType: 0
22:36:17.396 [restartedMain] INFO  o.f.bcos.sdk.BcosSDK - [<init>,87] - create BcosSDK, start channel succ, channelProcessorThreadSize: 16, receiptProcessorThreadSize: 16
22:36:17.415 [restartedMain] INFO  o.f.b.s.s.GroupManagerServiceImpl - [registerBlockNumberNotifyHandler,260] - registerBlockNumberNotifyHandler
22:36:17.416 [restartedMain] INFO  o.f.b.s.s.GroupManagerServiceImpl - [registerTransactionNotifyHandler,282] - registerTransactionNotifyHandler
22:36:17.455 [restartedMain] INFO  o.f.bcos.sdk.BcosSDK - [<init>,98] - create BcosSDK, create groupManagerService success
22:36:18.536 [restartedMain] INFO  o.f.b.s.amop.AmopImp - [sendSubscribe,216] - update subscribe inform 1 peers
22:36:18.552 [restartedMain] INFO  o.f.b.s.amop.AmopImp - [start,188] - amop module started
22:36:18.552 [restartedMain] INFO  o.f.b.s.amop.AmopImp - [sendSubscribe,216] - update subscribe inform 1 peers
22:36:18.554 [restartedMain] INFO  o.f.bcos.sdk.BcosSDK - [<init>,103] - create BcosSDK, create Amop success
22:36:18.587 [restartedMain] INFO  o.f.b.s.c.Client - [build,114] - build client success for group 1, crypto type 0
22:36:18.588 [restartedMain] INFO  o.f.bcos.sdk.BcosSDK - [getClient,178] - create client for group 1 success
22:36:18.594 [restartedMain] INFO  c.f.I.c.SdkBeanConfig - [client,55] - Chain connect successful. Current block number 445
22:36:20.086 [restartedMain] INFO  c.a.d.p.DruidDataSource - [init,998] - {dataSource-1} inited
22:36:22.412 [restartedMain] INFO  o.q.i.StdSchedulerFactory - [instantiate,1220] - Using default implementation for ThreadExecutor
22:36:22.441 [restartedMain] INFO  o.q.c.SchedulerSignalerImpl - [<init>,61] - Initialized Scheduler Signaller of type: class org.quartz.core.SchedulerSignalerImpl
22:36:22.441 [restartedMain] INFO  o.q.c.QuartzScheduler - [<init>,229] - Quartz Scheduler v.2.3.2 created.
22:36:22.456 [restartedMain] INFO  o.q.c.QuartzScheduler - [initialize,294] - Scheduler meta-data: Quartz Scheduler (v2.3.2) 'RuoyiScheduler' with instanceId 'WenCheng-Pro161765377382417'
  Scheduler class: 'org.quartz.core.QuartzScheduler' - running locally.
  NOT STARTED.
  Currently in standby mode.
  Number of jobs executed: 0
  Using thread pool 'org.quartz.simpl.SimpleThreadPool' - with 20 threads.
  Using job-store 'org.springframework.scheduling.quartz.LocalDataSourceJobStore' - which supports persistence. and is clustered.

22:36:22.456 [restartedMain] INFO  o.q.i.StdSchedulerFactory - [instantiate,1374] - Quartz scheduler 'RuoyiScheduler' initialized from an externally provided properties instance.
22:36:22.457 [restartedMain] INFO  o.q.i.StdSchedulerFactory - [instantiate,1378] - Quartz scheduler version: 2.3.2
22:36:22.461 [restartedMain] INFO  o.q.c.QuartzScheduler - [setJobFactory,2293] - JobFactory set to: org.springframework.scheduling.quartz.AdaptableJobFactory@781b8ce9
22:36:24.574 [restartedMain] INFO  c.f.a.u.DeviceStatusUtil - [lambda$initializeSensorCommands$2,100] - 加载传感器指令 - 类型：1，指令：01 03 00 00 00 02 C4 0B
22:36:24.575 [restartedMain] INFO  c.f.a.u.DeviceStatusUtil - [lambda$initializeSensorCommands$2,100] - 加载传感器指令 - 类型：2，指令：02 03 01 F4 00 08 04 31
22:36:24.575 [restartedMain] INFO  c.f.a.u.DeviceStatusUtil - [lambda$initializeSensorCommands$2,100] - 加载传感器指令 - 类型：3，指令：03 03 00 00 00 01 85 E8
22:36:24.575 [restartedMain] INFO  c.f.a.u.DeviceStatusUtil - [lambda$initializeSensorCommands$2,100] - 加载传感器指令 - 类型：4，指令：04 03 00 00 00 02 C4 5E
22:36:24.575 [restartedMain] INFO  c.f.a.u.DeviceStatusUtil - [lambda$initializeSensorCommands$2,100] - 加载传感器指令 - 类型：5，指令：05 03 00 00 00 01 85 8E
22:36:24.575 [restartedMain] INFO  c.f.a.u.DeviceStatusUtil - [lambda$initializeSensorCommands$2,100] - 加载传感器指令 - 类型：6，指令：06 03 00 00 00 04 45 BE
22:36:24.575 [restartedMain] INFO  c.f.a.u.DeviceStatusUtil - [lambda$initializeSensorCommands$2,100] - 加载传感器指令 - 类型：8，指令：08 03 00 05 00 03 15 53
22:36:24.575 [restartedMain] INFO  c.f.a.u.DeviceStatusUtil - [lambda$initializeSensorCommands$2,100] - 加载传感器指令 - 类型：2452，指令：254
22:36:24.578 [restartedMain] INFO  c.f.a.u.ThresholdConfigUtil - [initializeThresholdConfig,57] - 传感器阈值配置初始化完成，共配置8个参数阈值
22:36:30.680 [restartedMain] INFO  o.a.c.h.Http11NioProtocol - [log,173] - Starting ProtocolHandler ["http-nio-8081"]
22:36:32.320 [restartedMain] INFO  c.f.FrogApplication - [logStarted,61] - Started FrogApplication in 35.979 seconds (JVM running for 39.17)
22:36:33.267 [Quartz Scheduler [RuoyiScheduler]] INFO  o.q.c.QuartzScheduler - [start,547] - Scheduler RuoyiScheduler_$_WenCheng-Pro161765377382417 started.
22:36:36.100 [http-nio-8081-exec-2] INFO  o.a.c.c.C.[.[.[/] - [log,173] - Initializing Spring DispatcherServlet 'dispatcherServlet'
22:36:37.887 [http-nio-8081-exec-8] INFO  c.f.a.w.AlertWebSocketServer - [onOpen,38] - 收到新的连接请求，clientId: client_1765377397711_m5jh1c6u6
22:36:37.887 [http-nio-8081-exec-8] INFO  c.f.a.w.AlertWebSocketServer - [onOpen,53] - 客户端 client_1765377397711_m5jh1c6u6 连接成功，当前在线数：1
22:36:47.454 [http-nio-8081-exec-3] INFO  c.f.a.w.AlertWebSocketServer - [onClose,60] - 客户端 client_1765377397711_m5jh1c6u6 断开连接，当前在线数：0
22:42:06.955 [http-nio-8081-exec-1] INFO  c.f.a.w.AlertWebSocketServer - [onOpen,38] - 收到新的连接请求，clientId: client_1765377726945_hzzr6qnmt
22:42:06.956 [http-nio-8081-exec-1] INFO  c.f.a.w.AlertWebSocketServer - [onOpen,53] - 客户端 client_1765377726945_hzzr6qnmt 连接成功，当前在线数：1
22:52:30.197 [http-nio-8081-exec-2] INFO  c.f.a.w.AlertWebSocketServer - [onClose,60] - 客户端 client_1765377726945_hzzr6qnmt 断开连接，当前在线数：0
22:52:33.868 [http-nio-8081-exec-4] INFO  c.f.a.w.AlertWebSocketServer - [onOpen,38] - 收到新的连接请求，clientId: client_1765378353860_6uge0uub2
22:52:33.868 [http-nio-8081-exec-4] INFO  c.f.a.w.AlertWebSocketServer - [onOpen,53] - 客户端 client_1765378353860_6uge0uub2 连接成功，当前在线数：1
22:57:51.871 [http-nio-8081-exec-4] INFO  c.f.a.w.AlertWebSocketServer - [onClose,60] - 客户端 client_1765378353860_6uge0uub2 断开连接，当前在线数：0
22:57:55.303 [http-nio-8081-exec-1] INFO  c.f.a.w.AlertWebSocketServer - [onOpen,38] - 收到新的连接请求，clientId: client_1765378675298_u0916jopq
22:57:55.305 [http-nio-8081-exec-1] INFO  c.f.a.w.AlertWebSocketServer - [onOpen,53] - 客户端 client_1765378675298_u0916jopq 连接成功，当前在线数：1
22:58:36.502 [http-nio-8081-exec-10] INFO  c.f.a.w.AlertWebSocketServer - [onClose,60] - 客户端 client_1765378675298_u0916jopq 断开连接，当前在线数：0
22:58:39.164 [http-nio-8081-exec-10] INFO  c.f.a.w.AlertWebSocketServer - [onOpen,38] - 收到新的连接请求，clientId: client_1765378719158_c9acx9pwr
22:58:39.165 [http-nio-8081-exec-10] INFO  c.f.a.w.AlertWebSocketServer - [onOpen,53] - 客户端 client_1765378719158_c9acx9pwr 连接成功，当前在线数：1
22:58:49.749 [SpringApplicationShutdownHook] INFO  o.q.c.QuartzScheduler - [standby,585] - Scheduler RuoyiScheduler_$_WenCheng-Pro161765377382417 paused.
22:58:50.780 [SpringApplicationShutdownHook] INFO  c.f.a.w.AlertWebSocketServer - [onClose,60] - 客户端 client_1765378719158_c9acx9pwr 断开连接，当前在线数：0
22:58:51.306 [SpringApplicationShutdownHook] INFO  o.q.c.QuartzScheduler - [shutdown,666] - Scheduler RuoyiScheduler_$_WenCheng-Pro161765377382417 shutting down.
22:58:51.306 [SpringApplicationShutdownHook] INFO  o.q.c.QuartzScheduler - [standby,585] - Scheduler RuoyiScheduler_$_WenCheng-Pro161765377382417 paused.
22:58:51.308 [SpringApplicationShutdownHook] INFO  o.q.c.QuartzScheduler - [shutdown,740] - Scheduler RuoyiScheduler_$_WenCheng-Pro161765377382417 shutdown complete.
22:58:51.308 [SpringApplicationShutdownHook] INFO  sys-user - [shutdownAsyncManager,31] - ====关闭后台任务任务线程池====
22:58:51.321 [SpringApplicationShutdownHook] INFO  c.a.d.p.DruidDataSource - [close,2071] - {dataSource-1} closing ...
22:58:51.340 [SpringApplicationShutdownHook] INFO  c.a.d.p.DruidDataSource - [close,2144] - {dataSource-1} closed
22:59:01.724 [restartedMain] INFO  c.f.FrogApplication - [logStarting,55] - Starting FrogApplication using Java 1.8.0_333 on WenCheng-Pro16 with PID 1340 (D:\zhnlrjcs\znwl-agriculture-server-no\frog-admin\target\classes started by Wen Yi in D:\zhnlrjcs\znwl-agriculture-server-no)
22:59:01.733 [restartedMain] INFO  c.f.FrogApplication - [logStartupProfileInfo,659] - No active profile set, falling back to default profiles: default
22:59:01.779 [background-preinit] INFO  o.h.v.i.util.Version - [<clinit>,21] - HV000001: Hibernate Validator 6.2.0.Final
22:59:12.815 [restartedMain] INFO  o.a.c.h.Http11NioProtocol - [log,173] - Initializing ProtocolHandler ["http-nio-8081"]
22:59:12.817 [restartedMain] INFO  o.a.c.c.StandardService - [log,173] - Starting service [Tomcat]
22:59:12.817 [restartedMain] INFO  o.a.c.c.StandardEngine - [log,173] - Starting Servlet engine: [Apache Tomcat/9.0.54]
22:59:13.308 [restartedMain] INFO  o.a.c.c.C.[.[.[/] - [log,173] - Initializing Spring embedded WebApplicationContext
22:59:21.820 [restartedMain] INFO  o.f.b.s.n.ConnectionManager - [<init>,88] -  all connections, size: 1, list: [ConnectionInfo{host='192.168.1.5', port=20200}]
22:59:21.820 [restartedMain] INFO  o.f.b.s.n.NetworkImp - [start,167] - 
* TRACE INFORMATION:
----------------------------
====> STEP1: try to connect nodes with ecdsa context...

22:59:21.823 [restartedMain] INFO  o.f.b.s.n.NetworkImp - [start,174] - ====> <==== STEP1-1: Load certificates for ecdsa context success..., start connManager with ECDSA sslContext
22:59:21.894 [restartedMain] INFO  o.f.b.s.n.ConnectionManager - [initSslContext,238] -  build ECDSA ssl context with configured certificates 
22:59:26.360 [restartedMain] INFO  o.f.b.s.n.ConnectionManager - [checkConnectionResult,402] -  ssl handshake success 192.168.1.5:20200
22:59:26.364 [nioEventLoopGroup-4-1] INFO  o.f.b.s.n.ChannelHandler - [userEventTriggered,73] -  handshake success, host: 192.168.1.5, port: 20200, ctx: 430964560
22:59:26.589 [nioEventLoopGroup-4-1] INFO  o.f.b.s.c.ChannelImp - [onResponse,225] -  node: ClientVersion{version='2.11.0', supportedVersion='2.11.0', chainId='1', buildTime='20240520 01:38:47', buildType='Linux/g++/Release', gitBranch='HEAD', gitCommitHash='bee4dda033297443f02774973445d954933db885'}, content: {"id":0,"jsonrpc":"2.0","result":{"Build Time":"20240520 01:38:47","Build Type":"Linux/g++/Release","Chain Id":"1","FISCO-BCOS Version":"2.11.0","Git Branch":"HEAD","Git Commit Hash":"bee4dda033297443f02774973445d954933db885","Supported Version":"2.11.0"}}

22:59:26.592 [nioEventLoopGroup-4-1] INFO  o.f.b.s.c.ChannelImp - [onResponse,233] -  support channel handshake node
22:59:26.604 [nioEventLoopGroup-4-1] INFO  o.f.b.s.c.ChannelImp - [onResponse,309] -  channel protocol handshake success, set socket channel protocol, host: 192.168.1.5:20200, channel protocol: ChannelProtocol [protocol=3, nodeVersion=2.11.0, EnumProtocol=VERSION_3]
22:59:26.615 [restartedMain] INFO  o.f.b.s.c.ChannelImp - [checkConnectionsToStartPeriodTask,126] -  Connect to  nodes: 192.168.1.5:20200, 
22:59:26.615 [restartedMain] INFO  o.f.bcos.sdk.BcosSDK - [<init>,77] - create BcosSDK, start channel success, cryptoType: 0
22:59:26.625 [restartedMain] INFO  o.f.bcos.sdk.BcosSDK - [<init>,87] - create BcosSDK, start channel succ, channelProcessorThreadSize: 16, receiptProcessorThreadSize: 16
22:59:26.648 [restartedMain] INFO  o.f.b.s.s.GroupManagerServiceImpl - [registerBlockNumberNotifyHandler,260] - registerBlockNumberNotifyHandler
22:59:26.652 [restartedMain] INFO  o.f.b.s.s.GroupManagerServiceImpl - [registerTransactionNotifyHandler,282] - registerTransactionNotifyHandler
22:59:26.698 [restartedMain] INFO  o.f.bcos.sdk.BcosSDK - [<init>,98] - create BcosSDK, create groupManagerService success
22:59:28.090 [restartedMain] INFO  o.f.b.s.amop.AmopImp - [sendSubscribe,216] - update subscribe inform 1 peers
22:59:28.109 [restartedMain] INFO  o.f.b.s.amop.AmopImp - [start,188] - amop module started
22:59:28.109 [restartedMain] INFO  o.f.b.s.amop.AmopImp - [sendSubscribe,216] - update subscribe inform 1 peers
22:59:28.111 [restartedMain] INFO  o.f.bcos.sdk.BcosSDK - [<init>,103] - create BcosSDK, create Amop success
22:59:28.155 [restartedMain] INFO  o.f.b.s.c.Client - [build,114] - build client success for group 1, crypto type 0
22:59:28.157 [restartedMain] INFO  o.f.bcos.sdk.BcosSDK - [getClient,178] - create client for group 1 success
22:59:28.162 [restartedMain] INFO  c.f.I.c.SdkBeanConfig - [client,55] - Chain connect successful. Current block number 445
22:59:29.742 [restartedMain] INFO  c.a.d.p.DruidDataSource - [init,998] - {dataSource-1} inited
22:59:32.543 [restartedMain] INFO  o.q.i.StdSchedulerFactory - [instantiate,1220] - Using default implementation for ThreadExecutor
22:59:32.569 [restartedMain] INFO  o.q.c.SchedulerSignalerImpl - [<init>,61] - Initialized Scheduler Signaller of type: class org.quartz.core.SchedulerSignalerImpl
22:59:32.569 [restartedMain] INFO  o.q.c.QuartzScheduler - [<init>,229] - Quartz Scheduler v.2.3.2 created.
22:59:32.585 [restartedMain] INFO  o.q.c.QuartzScheduler - [initialize,294] - Scheduler meta-data: Quartz Scheduler (v2.3.2) 'RuoyiScheduler' with instanceId 'WenCheng-Pro161765378772547'
  Scheduler class: 'org.quartz.core.QuartzScheduler' - running locally.
  NOT STARTED.
  Currently in standby mode.
  Number of jobs executed: 0
  Using thread pool 'org.quartz.simpl.SimpleThreadPool' - with 20 threads.
  Using job-store 'org.springframework.scheduling.quartz.LocalDataSourceJobStore' - which supports persistence. and is clustered.

22:59:32.585 [restartedMain] INFO  o.q.i.StdSchedulerFactory - [instantiate,1374] - Quartz scheduler 'RuoyiScheduler' initialized from an externally provided properties instance.
22:59:32.586 [restartedMain] INFO  o.q.i.StdSchedulerFactory - [instantiate,1378] - Quartz scheduler version: 2.3.2
22:59:32.590 [restartedMain] INFO  o.q.c.QuartzScheduler - [setJobFactory,2293] - JobFactory set to: org.springframework.scheduling.quartz.AdaptableJobFactory@5e8778b8
22:59:35.638 [restartedMain] INFO  c.f.a.u.DeviceStatusUtil - [lambda$initializeSensorCommands$2,100] - 加载传感器指令 - 类型：1，指令：01 03 00 00 00 02 C4 0B
22:59:35.638 [restartedMain] INFO  c.f.a.u.DeviceStatusUtil - [lambda$initializeSensorCommands$2,100] - 加载传感器指令 - 类型：2，指令：02 03 01 F4 00 08 04 31
22:59:35.640 [restartedMain] INFO  c.f.a.u.DeviceStatusUtil - [lambda$initializeSensorCommands$2,100] - 加载传感器指令 - 类型：3，指令：03 03 00 00 00 01 85 E8
22:59:35.640 [restartedMain] INFO  c.f.a.u.DeviceStatusUtil - [lambda$initializeSensorCommands$2,100] - 加载传感器指令 - 类型：4，指令：04 03 00 00 00 02 C4 5E
22:59:35.640 [restartedMain] INFO  c.f.a.u.DeviceStatusUtil - [lambda$initializeSensorCommands$2,100] - 加载传感器指令 - 类型：5，指令：05 03 00 00 00 01 85 8E
22:59:35.640 [restartedMain] INFO  c.f.a.u.DeviceStatusUtil - [lambda$initializeSensorCommands$2,100] - 加载传感器指令 - 类型：6，指令：06 03 00 00 00 04 45 BE
22:59:35.640 [restartedMain] INFO  c.f.a.u.DeviceStatusUtil - [lambda$initializeSensorCommands$2,100] - 加载传感器指令 - 类型：8，指令：08 03 00 05 00 03 15 53
22:59:35.641 [restartedMain] INFO  c.f.a.u.DeviceStatusUtil - [lambda$initializeSensorCommands$2,100] - 加载传感器指令 - 类型：2452，指令：254
22:59:35.644 [restartedMain] INFO  c.f.a.u.ThresholdConfigUtil - [initializeThresholdConfig,57] - 传感器阈值配置初始化完成，共配置8个参数阈值
22:59:43.705 [restartedMain] INFO  o.a.c.h.Http11NioProtocol - [log,173] - Starting ProtocolHandler ["http-nio-8081"]
22:59:43.927 [http-nio-8081-exec-1] INFO  o.a.c.c.C.[.[.[/] - [log,173] - Initializing Spring DispatcherServlet 'dispatcherServlet'
22:59:44.212 [http-nio-8081-exec-1] INFO  c.f.a.w.AlertWebSocketServer - [onOpen,38] - 收到新的连接请求，clientId: client_1765378719158_c9acx9pwr
22:59:44.214 [http-nio-8081-exec-1] INFO  c.f.a.w.AlertWebSocketServer - [onOpen,53] - 客户端 client_1765378719158_c9acx9pwr 连接成功，当前在线数：1
22:59:45.132 [restartedMain] INFO  c.f.FrogApplication - [logStarted,61] - Started FrogApplication in 44.724 seconds (JVM running for 49.584)
22:59:46.252 [Quartz Scheduler [RuoyiScheduler]] INFO  o.q.c.QuartzScheduler - [start,547] - Scheduler RuoyiScheduler_$_WenCheng-Pro161765378772547 started.
23:00:07.177 [http-nio-8081-exec-7] INFO  c.f.a.w.AlertWebSocketServer - [onClose,60] - 客户端 client_1765378719158_c9acx9pwr 断开连接，当前在线数：0
23:00:12.248 [http-nio-8081-exec-2] INFO  c.f.a.w.AlertWebSocketServer - [onOpen,38] - 收到新的连接请求，clientId: client_1765378719158_c9acx9pwr
23:00:12.248 [http-nio-8081-exec-2] INFO  c.f.a.w.AlertWebSocketServer - [onOpen,53] - 客户端 client_1765378719158_c9acx9pwr 连接成功，当前在线数：1
23:02:58.428 [http-nio-8081-exec-5] INFO  c.f.a.w.AlertWebSocketServer - [onClose,60] - 客户端 client_1765378719158_c9acx9pwr 断开连接，当前在线数：0
23:03:01.715 [http-nio-8081-exec-1] INFO  c.f.a.w.AlertWebSocketServer - [onOpen,38] - 收到新的连接请求，clientId: client_1765378981710_crgecr4x3
23:03:01.715 [http-nio-8081-exec-1] INFO  c.f.a.w.AlertWebSocketServer - [onOpen,53] - 客户端 client_1765378981710_crgecr4x3 连接成功，当前在线数：1
23:04:10.526 [http-nio-8081-exec-4] INFO  c.f.a.w.AlertWebSocketServer - [onClose,60] - 客户端 client_1765378981710_crgecr4x3 断开连接，当前在线数：0
23:04:14.090 [http-nio-8081-exec-5] INFO  c.f.a.w.AlertWebSocketServer - [onOpen,38] - 收到新的连接请求，clientId: client_1765379054085_s6wyz5t6k
23:04:14.090 [http-nio-8081-exec-5] INFO  c.f.a.w.AlertWebSocketServer - [onOpen,53] - 客户端 client_1765379054085_s6wyz5t6k 连接成功，当前在线数：1
23:05:26.728 [http-nio-8081-exec-7] INFO  c.f.a.w.AlertWebSocketServer - [onClose,60] - 客户端 client_1765379054085_s6wyz5t6k 断开连接，当前在线数：0
23:05:27.415 [http-nio-8081-exec-10] INFO  c.f.a.w.AlertWebSocketServer - [onOpen,38] - 收到新的连接请求，clientId: client_1765379127411_4vtl94b03
23:05:27.416 [http-nio-8081-exec-10] INFO  c.f.a.w.AlertWebSocketServer - [onOpen,53] - 客户端 client_1765379127411_4vtl94b03 连接成功，当前在线数：1
23:19:06.575 [http-nio-8081-exec-1] INFO  c.f.a.w.AlertWebSocketServer - [onClose,60] - 客户端 client_1765379127411_4vtl94b03 断开连接，当前在线数：0
23:19:09.938 [http-nio-8081-exec-5] INFO  c.f.a.w.AlertWebSocketServer - [onOpen,38] - 收到新的连接请求，clientId: client_1765379949930_33s22ll5h
23:19:09.938 [http-nio-8081-exec-5] INFO  c.f.a.w.AlertWebSocketServer - [onOpen,53] - 客户端 client_1765379949930_33s22ll5h 连接成功，当前在线数：1
23:20:43.673 [http-nio-8081-exec-4] INFO  o.f.b.s.a.w.ABIDefinitionFactory - [loadABI,64] -  abiDefinition: org.fisco.bcos.sdk.abi.wrapper.ABIDefinition@4ec4c50d
23:20:43.684 [http-nio-8081-exec-4] INFO  o.f.b.s.a.w.ContractABIDefinition - [addFunction,86] -  name: addCollector, methodId: 0x5921a881, methodSignature: addCollector(string), abi: org.fisco.bcos.sdk.abi.wrapper.ABIDefinition@f22c2864
23:20:43.685 [http-nio-8081-exec-4] INFO  o.f.b.s.a.w.ABIDefinitionFactory - [loadABI,64] -  abiDefinition: org.fisco.bcos.sdk.abi.wrapper.ABIDefinition@f22c2864
23:20:43.687 [http-nio-8081-exec-4] INFO  o.f.b.s.a.w.ContractABIDefinition - [addFunction,86] -  name: addGreenhouseInfo, methodId: 0xcf9719ff, methodSignature: addGreenhouseInfo(string,string,uint256,string,string), abi: org.fisco.bcos.sdk.abi.wrapper.ABIDefinition@67e515f
23:20:43.687 [http-nio-8081-exec-4] INFO  o.f.b.s.a.w.ABIDefinitionFactory - [loadABI,64] -  abiDefinition: org.fisco.bcos.sdk.abi.wrapper.ABIDefinition@67e515f
23:20:43.687 [http-nio-8081-exec-4] INFO  o.f.b.s.a.w.ContractABIDefinition - [addFunction,86] -  name: addPartitions, methodId: 0x74401b5a, methodSignature: addPartitions(uint256,string,string,string,string,address,string), abi: org.fisco.bcos.sdk.abi.wrapper.ABIDefinition@a286481e
23:20:43.689 [http-nio-8081-exec-4] INFO  o.f.b.s.a.w.ABIDefinitionFactory - [loadABI,64] -  abiDefinition: org.fisco.bcos.sdk.abi.wrapper.ABIDefinition@a286481e
23:20:43.689 [http-nio-8081-exec-4] INFO  o.f.b.s.a.w.ContractABIDefinition - [addFunction,86] -  name: check, methodId: 0xb6f921ad, methodSignature: check(string), abi: org.fisco.bcos.sdk.abi.wrapper.ABIDefinition@d54ea3dc
23:20:43.689 [http-nio-8081-exec-4] INFO  o.f.b.s.a.w.ABIDefinitionFactory - [loadABI,64] -  abiDefinition: org.fisco.bcos.sdk.abi.wrapper.ABIDefinition@d54ea3dc
23:20:43.691 [http-nio-8081-exec-4] INFO  o.f.b.s.a.w.ContractABIDefinition - [addFunction,86] -  name: offHarvest, methodId: 0x23cff4c0, methodSignature: offHarvest(address[]), abi: org.fisco.bcos.sdk.abi.wrapper.ABIDefinition@7a87a28c
23:20:43.691 [http-nio-8081-exec-4] INFO  o.f.b.s.a.w.ABIDefinitionFactory - [loadABI,64] -  abiDefinition: org.fisco.bcos.sdk.abi.wrapper.ABIDefinition@7a87a28c
23:20:43.691 [http-nio-8081-exec-4] INFO  o.f.b.s.a.w.ContractABIDefinition - [addFunction,86] -  name: removeCollector, methodId: 0xd2ba0499, methodSignature: removeCollector(string), abi: org.fisco.bcos.sdk.abi.wrapper.ABIDefinition@f732d161
23:20:43.691 [http-nio-8081-exec-4] INFO  o.f.b.s.a.w.ABIDefinitionFactory - [loadABI,64] -  abiDefinition: org.fisco.bcos.sdk.abi.wrapper.ABIDefinition@f732d161
23:20:43.691 [http-nio-8081-exec-4] INFO  o.f.b.s.a.w.ABIDefinitionFactory - [loadABI,71] -  contractABIDefinition org.fisco.bcos.sdk.abi.wrapper.ContractABIDefinition@5b209050 
23:20:43.705 [http-nio-8081-exec-4] INFO  o.f.b.s.a.w.ABIObjectFactory - [createObject,32] -  name: addPartitions
23:20:43.936 [http-nio-8081-exec-4] INFO  o.f.b.s.a.w.ABIDefinitionFactory - [loadABI,64] -  abiDefinition: org.fisco.bcos.sdk.abi.wrapper.ABIDefinition@4ec4c50d
23:20:43.937 [http-nio-8081-exec-4] INFO  o.f.b.s.a.w.ContractABIDefinition - [addFunction,86] -  name: addCollector, methodId: 0x5921a881, methodSignature: addCollector(string), abi: org.fisco.bcos.sdk.abi.wrapper.ABIDefinition@f22c2864
23:20:43.937 [http-nio-8081-exec-4] INFO  o.f.b.s.a.w.ABIDefinitionFactory - [loadABI,64] -  abiDefinition: org.fisco.bcos.sdk.abi.wrapper.ABIDefinition@f22c2864
23:20:43.937 [http-nio-8081-exec-4] INFO  o.f.b.s.a.w.ContractABIDefinition - [addFunction,86] -  name: addGreenhouseInfo, methodId: 0xcf9719ff, methodSignature: addGreenhouseInfo(string,string,uint256,string,string), abi: org.fisco.bcos.sdk.abi.wrapper.ABIDefinition@67e515f
23:20:43.937 [http-nio-8081-exec-4] INFO  o.f.b.s.a.w.ABIDefinitionFactory - [loadABI,64] -  abiDefinition: org.fisco.bcos.sdk.abi.wrapper.ABIDefinition@67e515f
23:20:43.938 [http-nio-8081-exec-4] INFO  o.f.b.s.a.w.ContractABIDefinition - [addFunction,86] -  name: addPartitions, methodId: 0x74401b5a, methodSignature: addPartitions(uint256,string,string,string,string,address,string), abi: org.fisco.bcos.sdk.abi.wrapper.ABIDefinition@a286481e
23:20:43.938 [http-nio-8081-exec-4] INFO  o.f.b.s.a.w.ABIDefinitionFactory - [loadABI,64] -  abiDefinition: org.fisco.bcos.sdk.abi.wrapper.ABIDefinition@a286481e
23:20:43.938 [http-nio-8081-exec-4] INFO  o.f.b.s.a.w.ContractABIDefinition - [addFunction,86] -  name: check, methodId: 0xb6f921ad, methodSignature: check(string), abi: org.fisco.bcos.sdk.abi.wrapper.ABIDefinition@d54ea3dc
23:20:43.939 [http-nio-8081-exec-4] INFO  o.f.b.s.a.w.ABIDefinitionFactory - [loadABI,64] -  abiDefinition: org.fisco.bcos.sdk.abi.wrapper.ABIDefinition@d54ea3dc
23:20:43.939 [http-nio-8081-exec-4] INFO  o.f.b.s.a.w.ContractABIDefinition - [addFunction,86] -  name: offHarvest, methodId: 0x23cff4c0, methodSignature: offHarvest(address[]), abi: org.fisco.bcos.sdk.abi.wrapper.ABIDefinition@7a87a28c
23:20:43.940 [http-nio-8081-exec-4] INFO  o.f.b.s.a.w.ABIDefinitionFactory - [loadABI,64] -  abiDefinition: org.fisco.bcos.sdk.abi.wrapper.ABIDefinition@7a87a28c
23:20:43.940 [http-nio-8081-exec-4] INFO  o.f.b.s.a.w.ContractABIDefinition - [addFunction,86] -  name: removeCollector, methodId: 0xd2ba0499, methodSignature: removeCollector(string), abi: org.fisco.bcos.sdk.abi.wrapper.ABIDefinition@f732d161
23:20:43.941 [http-nio-8081-exec-4] INFO  o.f.b.s.a.w.ABIDefinitionFactory - [loadABI,64] -  abiDefinition: org.fisco.bcos.sdk.abi.wrapper.ABIDefinition@f732d161
23:20:43.941 [http-nio-8081-exec-4] INFO  o.f.b.s.a.w.ABIDefinitionFactory - [loadABI,71] -  contractABIDefinition org.fisco.bcos.sdk.abi.wrapper.ContractABIDefinition@7e8ae4ba 
23:20:43.942 [http-nio-8081-exec-4] INFO  o.f.b.s.a.w.ABIObjectFactory - [createObject,32] -  name: addPartitions
23:20:57.001 [http-nio-8081-exec-8] INFO  o.f.b.s.a.w.ABIDefinitionFactory - [loadABI,64] -  abiDefinition: org.fisco.bcos.sdk.abi.wrapper.ABIDefinition@4ec4c50d
23:20:57.001 [http-nio-8081-exec-8] INFO  o.f.b.s.a.w.ContractABIDefinition - [addFunction,86] -  name: addCollector, methodId: 0x5921a881, methodSignature: addCollector(string), abi: org.fisco.bcos.sdk.abi.wrapper.ABIDefinition@f22c2864
23:20:57.003 [http-nio-8081-exec-8] INFO  o.f.b.s.a.w.ABIDefinitionFactory - [loadABI,64] -  abiDefinition: org.fisco.bcos.sdk.abi.wrapper.ABIDefinition@f22c2864
23:20:57.003 [http-nio-8081-exec-8] INFO  o.f.b.s.a.w.ContractABIDefinition - [addFunction,86] -  name: addGreenhouseInfo, methodId: 0xcf9719ff, methodSignature: addGreenhouseInfo(string,string,uint256,string,string), abi: org.fisco.bcos.sdk.abi.wrapper.ABIDefinition@67e515f
23:20:57.003 [http-nio-8081-exec-8] INFO  o.f.b.s.a.w.ABIDefinitionFactory - [loadABI,64] -  abiDefinition: org.fisco.bcos.sdk.abi.wrapper.ABIDefinition@67e515f
23:20:57.004 [http-nio-8081-exec-8] INFO  o.f.b.s.a.w.ContractABIDefinition - [addFunction,86] -  name: addPartitions, methodId: 0x74401b5a, methodSignature: addPartitions(uint256,string,string,string,string,address,string), abi: org.fisco.bcos.sdk.abi.wrapper.ABIDefinition@a286481e
23:20:57.004 [http-nio-8081-exec-8] INFO  o.f.b.s.a.w.ABIDefinitionFactory - [loadABI,64] -  abiDefinition: org.fisco.bcos.sdk.abi.wrapper.ABIDefinition@a286481e
23:20:57.006 [http-nio-8081-exec-8] INFO  o.f.b.s.a.w.ContractABIDefinition - [addFunction,86] -  name: check, methodId: 0xb6f921ad, methodSignature: check(string), abi: org.fisco.bcos.sdk.abi.wrapper.ABIDefinition@d54ea3dc
23:20:57.006 [http-nio-8081-exec-8] INFO  o.f.b.s.a.w.ABIDefinitionFactory - [loadABI,64] -  abiDefinition: org.fisco.bcos.sdk.abi.wrapper.ABIDefinition@d54ea3dc
23:20:57.006 [http-nio-8081-exec-8] INFO  o.f.b.s.a.w.ContractABIDefinition - [addFunction,86] -  name: offHarvest, methodId: 0x23cff4c0, methodSignature: offHarvest(address[]), abi: org.fisco.bcos.sdk.abi.wrapper.ABIDefinition@7a87a28c
23:20:57.007 [http-nio-8081-exec-8] INFO  o.f.b.s.a.w.ABIDefinitionFactory - [loadABI,64] -  abiDefinition: org.fisco.bcos.sdk.abi.wrapper.ABIDefinition@7a87a28c
23:20:57.007 [http-nio-8081-exec-8] INFO  o.f.b.s.a.w.ContractABIDefinition - [addFunction,86] -  name: removeCollector, methodId: 0xd2ba0499, methodSignature: removeCollector(string), abi: org.fisco.bcos.sdk.abi.wrapper.ABIDefinition@f732d161
23:20:57.009 [http-nio-8081-exec-8] INFO  o.f.b.s.a.w.ABIDefinitionFactory - [loadABI,64] -  abiDefinition: org.fisco.bcos.sdk.abi.wrapper.ABIDefinition@f732d161
23:20:57.009 [http-nio-8081-exec-8] INFO  o.f.b.s.a.w.ABIDefinitionFactory - [loadABI,71] -  contractABIDefinition org.fisco.bcos.sdk.abi.wrapper.ContractABIDefinition@583cf91a 
23:20:57.009 [http-nio-8081-exec-8] INFO  o.f.b.s.a.w.ABIObjectFactory - [createObject,32] -  name: addPartitions
23:20:57.537 [http-nio-8081-exec-8] INFO  o.f.b.s.a.w.ABIDefinitionFactory - [loadABI,64] -  abiDefinition: org.fisco.bcos.sdk.abi.wrapper.ABIDefinition@4ec4c50d
23:20:57.538 [http-nio-8081-exec-8] INFO  o.f.b.s.a.w.ContractABIDefinition - [addFunction,86] -  name: addCollector, methodId: 0x5921a881, methodSignature: addCollector(string), abi: org.fisco.bcos.sdk.abi.wrapper.ABIDefinition@f22c2864
23:20:57.538 [http-nio-8081-exec-8] INFO  o.f.b.s.a.w.ABIDefinitionFactory - [loadABI,64] -  abiDefinition: org.fisco.bcos.sdk.abi.wrapper.ABIDefinition@f22c2864
23:20:57.538 [http-nio-8081-exec-8] INFO  o.f.b.s.a.w.ContractABIDefinition - [addFunction,86] -  name: addGreenhouseInfo, methodId: 0xcf9719ff, methodSignature: addGreenhouseInfo(string,string,uint256,string,string), abi: org.fisco.bcos.sdk.abi.wrapper.ABIDefinition@67e515f
23:20:57.540 [http-nio-8081-exec-8] INFO  o.f.b.s.a.w.ABIDefinitionFactory - [loadABI,64] -  abiDefinition: org.fisco.bcos.sdk.abi.wrapper.ABIDefinition@67e515f
23:20:57.540 [http-nio-8081-exec-8] INFO  o.f.b.s.a.w.ContractABIDefinition - [addFunction,86] -  name: addPartitions, methodId: 0x74401b5a, methodSignature: addPartitions(uint256,string,string,string,string,address,string), abi: org.fisco.bcos.sdk.abi.wrapper.ABIDefinition@a286481e
23:20:57.541 [http-nio-8081-exec-8] INFO  o.f.b.s.a.w.ABIDefinitionFactory - [loadABI,64] -  abiDefinition: org.fisco.bcos.sdk.abi.wrapper.ABIDefinition@a286481e
23:20:57.541 [http-nio-8081-exec-8] INFO  o.f.b.s.a.w.ContractABIDefinition - [addFunction,86] -  name: check, methodId: 0xb6f921ad, methodSignature: check(string), abi: org.fisco.bcos.sdk.abi.wrapper.ABIDefinition@d54ea3dc
23:20:57.541 [http-nio-8081-exec-8] INFO  o.f.b.s.a.w.ABIDefinitionFactory - [loadABI,64] -  abiDefinition: org.fisco.bcos.sdk.abi.wrapper.ABIDefinition@d54ea3dc
23:20:57.543 [http-nio-8081-exec-8] INFO  o.f.b.s.a.w.ContractABIDefinition - [addFunction,86] -  name: offHarvest, methodId: 0x23cff4c0, methodSignature: offHarvest(address[]), abi: org.fisco.bcos.sdk.abi.wrapper.ABIDefinition@7a87a28c
23:20:57.543 [http-nio-8081-exec-8] INFO  o.f.b.s.a.w.ABIDefinitionFactory - [loadABI,64] -  abiDefinition: org.fisco.bcos.sdk.abi.wrapper.ABIDefinition@7a87a28c
23:20:57.544 [http-nio-8081-exec-8] INFO  o.f.b.s.a.w.ContractABIDefinition - [addFunction,86] -  name: removeCollector, methodId: 0xd2ba0499, methodSignature: removeCollector(string), abi: org.fisco.bcos.sdk.abi.wrapper.ABIDefinition@f732d161
23:20:57.544 [http-nio-8081-exec-8] INFO  o.f.b.s.a.w.ABIDefinitionFactory - [loadABI,64] -  abiDefinition: org.fisco.bcos.sdk.abi.wrapper.ABIDefinition@f732d161
23:20:57.544 [http-nio-8081-exec-8] INFO  o.f.b.s.a.w.ABIDefinitionFactory - [loadABI,71] -  contractABIDefinition org.fisco.bcos.sdk.abi.wrapper.ContractABIDefinition@754bedd3 
23:20:57.546 [http-nio-8081-exec-8] INFO  o.f.b.s.a.w.ABIObjectFactory - [createObject,32] -  name: addPartitions
23:24:04.340 [http-nio-8081-exec-5] INFO  o.f.b.s.a.w.ABIDefinitionFactory - [loadABI,64] -  abiDefinition: org.fisco.bcos.sdk.abi.wrapper.ABIDefinition@4ec4c50d
23:24:04.341 [http-nio-8081-exec-5] INFO  o.f.b.s.a.w.ContractABIDefinition - [addFunction,86] -  name: addCollector, methodId: 0x5921a881, methodSignature: addCollector(string), abi: org.fisco.bcos.sdk.abi.wrapper.ABIDefinition@f22c2864
23:24:04.341 [http-nio-8081-exec-5] INFO  o.f.b.s.a.w.ABIDefinitionFactory - [loadABI,64] -  abiDefinition: org.fisco.bcos.sdk.abi.wrapper.ABIDefinition@f22c2864
23:24:04.341 [http-nio-8081-exec-5] INFO  o.f.b.s.a.w.ContractABIDefinition - [addFunction,86] -  name: addGreenhouseInfo, methodId: 0xcf9719ff, methodSignature: addGreenhouseInfo(string,string,uint256,string,string), abi: org.fisco.bcos.sdk.abi.wrapper.ABIDefinition@67e515f
23:24:04.342 [http-nio-8081-exec-5] INFO  o.f.b.s.a.w.ABIDefinitionFactory - [loadABI,64] -  abiDefinition: org.fisco.bcos.sdk.abi.wrapper.ABIDefinition@67e515f
23:24:04.344 [http-nio-8081-exec-5] INFO  o.f.b.s.a.w.ContractABIDefinition - [addFunction,86] -  name: addPartitions, methodId: 0x74401b5a, methodSignature: addPartitions(uint256,string,string,string,string,address,string), abi: org.fisco.bcos.sdk.abi.wrapper.ABIDefinition@a286481e
23:24:04.344 [http-nio-8081-exec-5] INFO  o.f.b.s.a.w.ABIDefinitionFactory - [loadABI,64] -  abiDefinition: org.fisco.bcos.sdk.abi.wrapper.ABIDefinition@a286481e
