01:37:19.720 [restartedMain] INFO  c.f.FrogApplication - [logStarting,55] - Starting FrogApplication using Java 1.8.0_333 on WenCheng-Pro16 with PID 8764 (D:\zhnlrjcs\znwl-agriculture-server-no\frog-admin\target\classes started by Wen Yi in D:\zhnlrjcs\znwl-agriculture-server-no)
01:37:19.726 [restartedMain] INFO  c.f.FrogApplication - [logStartupProfileInfo,659] - No active profile set, falling back to default profiles: default
01:37:19.728 [background-preinit] INFO  o.h.v.i.util.Version - [<clinit>,21] - HV000001: Hibernate Validator 6.2.0.Final
01:37:24.984 [restartedMain] INFO  o.a.c.h.Http11NioProtocol - [log,173] - Initializing ProtocolHandler ["http-nio-8081"]
01:37:24.984 [restartedMain] INFO  o.a.c.c.StandardService - [log,173] - Starting service [Tomcat]
01:37:24.985 [restartedMain] INFO  o.a.c.c.StandardEngine - [log,173] - Starting Servlet engine: [Apache Tomcat/9.0.54]
01:37:25.172 [restartedMain] INFO  o.a.c.c.C.[.[.[/] - [log,173] - Initializing Spring embedded WebApplicationContext
01:37:28.656 [restartedMain] INFO  o.f.b.s.n.ConnectionManager - [<init>,88] -  all connections, size: 1, list: [ConnectionInfo{host='192.168.1.5', port=20200}]
01:37:28.656 [restartedMain] INFO  o.f.b.s.n.NetworkImp - [start,167] - 
* TRACE INFORMATION:
----------------------------
====> STEP1: try to connect nodes with ecdsa context...

01:37:28.656 [restartedMain] INFO  o.f.b.s.n.NetworkImp - [start,174] - ====> <==== STEP1-1: Load certificates for ecdsa context success..., start connManager with ECDSA sslContext
01:37:28.682 [restartedMain] INFO  o.f.b.s.n.ConnectionManager - [initSslContext,238] -  build ECDSA ssl context with configured certificates 
01:37:31.091 [restartedMain] INFO  o.f.b.s.n.ConnectionManager - [checkConnectionResult,402] -  ssl handshake success 192.168.1.5:20200
01:37:31.092 [nioEventLoopGroup-4-1] INFO  o.f.b.s.n.ChannelHandler - [userEventTriggered,73] -  handshake success, host: 192.168.1.5, port: 20200, ctx: 882320870
01:37:31.189 [nioEventLoopGroup-4-1] INFO  o.f.b.s.c.ChannelImp - [onResponse,225] -  node: ClientVersion{version='2.11.0', supportedVersion='2.11.0', chainId='1', buildTime='20240520 01:38:47', buildType='Linux/g++/Release', gitBranch='HEAD', gitCommitHash='bee4dda033297443f02774973445d954933db885'}, content: {"id":0,"jsonrpc":"2.0","result":{"Build Time":"20240520 01:38:47","Build Type":"Linux/g++/Release","Chain Id":"1","FISCO-BCOS Version":"2.11.0","Git Branch":"HEAD","Git Commit Hash":"bee4dda033297443f02774973445d954933db885","Supported Version":"2.11.0"}}

01:37:31.191 [nioEventLoopGroup-4-1] INFO  o.f.b.s.c.ChannelImp - [onResponse,233] -  support channel handshake node
01:37:31.196 [nioEventLoopGroup-4-1] INFO  o.f.b.s.c.ChannelImp - [onResponse,309] -  channel protocol handshake success, set socket channel protocol, host: 192.168.1.5:20200, channel protocol: ChannelProtocol [protocol=3, nodeVersion=2.11.0, EnumProtocol=VERSION_3]
01:37:31.228 [restartedMain] INFO  o.f.b.s.c.ChannelImp - [checkConnectionsToStartPeriodTask,126] -  Connect to  nodes: 192.168.1.5:20200, 
01:37:31.228 [restartedMain] INFO  o.f.bcos.sdk.BcosSDK - [<init>,77] - create BcosSDK, start channel success, cryptoType: 0
01:37:31.232 [restartedMain] INFO  o.f.bcos.sdk.BcosSDK - [<init>,87] - create BcosSDK, start channel succ, channelProcessorThreadSize: 16, receiptProcessorThreadSize: 16
01:37:31.241 [restartedMain] INFO  o.f.b.s.s.GroupManagerServiceImpl - [registerBlockNumberNotifyHandler,260] - registerBlockNumberNotifyHandler
01:37:31.243 [restartedMain] INFO  o.f.b.s.s.GroupManagerServiceImpl - [registerTransactionNotifyHandler,282] - registerTransactionNotifyHandler
01:37:31.265 [restartedMain] INFO  o.f.bcos.sdk.BcosSDK - [<init>,98] - create BcosSDK, create groupManagerService success
01:37:31.840 [restartedMain] INFO  o.f.b.s.amop.AmopImp - [sendSubscribe,216] - update subscribe inform 1 peers
01:37:31.847 [restartedMain] INFO  o.f.b.s.amop.AmopImp - [start,188] - amop module started
01:37:31.847 [restartedMain] INFO  o.f.b.s.amop.AmopImp - [sendSubscribe,216] - update subscribe inform 1 peers
01:37:31.849 [restartedMain] INFO  o.f.bcos.sdk.BcosSDK - [<init>,103] - create BcosSDK, create Amop success
01:37:31.866 [restartedMain] INFO  o.f.b.s.c.Client - [build,114] - build client success for group 1, crypto type 0
01:37:31.867 [restartedMain] INFO  o.f.bcos.sdk.BcosSDK - [getClient,178] - create client for group 1 success
01:37:31.871 [restartedMain] INFO  c.f.I.c.SdkBeanConfig - [client,55] - Chain connect successful. Current block number 445
01:37:32.709 [restartedMain] INFO  c.a.d.p.DruidDataSource - [init,998] - {dataSource-1} inited
01:37:34.061 [restartedMain] INFO  o.q.i.StdSchedulerFactory - [instantiate,1220] - Using default implementation for ThreadExecutor
01:37:34.075 [restartedMain] INFO  o.q.c.SchedulerSignalerImpl - [<init>,61] - Initialized Scheduler Signaller of type: class org.quartz.core.SchedulerSignalerImpl
01:37:34.075 [restartedMain] INFO  o.q.c.QuartzScheduler - [<init>,229] - Quartz Scheduler v.2.3.2 created.
01:37:34.082 [restartedMain] INFO  o.q.c.QuartzScheduler - [initialize,294] - Scheduler meta-data: Quartz Scheduler (v2.3.2) 'RuoyiScheduler' with instanceId 'WenCheng-Pro161762191454062'
  Scheduler class: 'org.quartz.core.QuartzScheduler' - running locally.
  NOT STARTED.
  Currently in standby mode.
  Number of jobs executed: 0
  Using thread pool 'org.quartz.simpl.SimpleThreadPool' - with 20 threads.
  Using job-store 'org.springframework.scheduling.quartz.LocalDataSourceJobStore' - which supports persistence. and is clustered.

01:37:34.082 [restartedMain] INFO  o.q.i.StdSchedulerFactory - [instantiate,1374] - Quartz scheduler 'RuoyiScheduler' initialized from an externally provided properties instance.
01:37:34.082 [restartedMain] INFO  o.q.i.StdSchedulerFactory - [instantiate,1378] - Quartz scheduler version: 2.3.2
01:37:34.083 [restartedMain] INFO  o.q.c.QuartzScheduler - [setJobFactory,2293] - JobFactory set to: org.springframework.scheduling.quartz.AdaptableJobFactory@7f9a2571
01:37:35.435 [restartedMain] INFO  c.f.a.u.DeviceStatusUtil - [lambda$initializeSensorCommands$2,100] - 加载传感器指令 - 类型：1，指令：01 03 00 00 00 02 C4 0B
01:37:35.437 [restartedMain] INFO  c.f.a.u.DeviceStatusUtil - [lambda$initializeSensorCommands$2,100] - 加载传感器指令 - 类型：2，指令：02 03 01 F4 00 08 04 31
01:37:35.437 [restartedMain] INFO  c.f.a.u.DeviceStatusUtil - [lambda$initializeSensorCommands$2,100] - 加载传感器指令 - 类型：3，指令：03 03 00 00 00 01 85 E8
01:37:35.437 [restartedMain] INFO  c.f.a.u.DeviceStatusUtil - [lambda$initializeSensorCommands$2,100] - 加载传感器指令 - 类型：4，指令：04 03 00 00 00 02 C4 5E
01:37:35.437 [restartedMain] INFO  c.f.a.u.DeviceStatusUtil - [lambda$initializeSensorCommands$2,100] - 加载传感器指令 - 类型：5，指令：05 03 00 00 00 01 85 8E
01:37:35.437 [restartedMain] INFO  c.f.a.u.DeviceStatusUtil - [lambda$initializeSensorCommands$2,100] - 加载传感器指令 - 类型：6，指令：06 03 00 00 00 04 45 BE
01:37:35.437 [restartedMain] INFO  c.f.a.u.DeviceStatusUtil - [lambda$initializeSensorCommands$2,100] - 加载传感器指令 - 类型：8，指令：08 03 00 05 00 03 15 53
01:37:35.437 [restartedMain] INFO  c.f.a.u.DeviceStatusUtil - [lambda$initializeSensorCommands$2,100] - 加载传感器指令 - 类型：2452，指令：254
01:37:35.438 [restartedMain] INFO  c.f.a.u.ThresholdConfigUtil - [initializeThresholdConfig,57] - 传感器阈值配置初始化完成，共配置8个参数阈值
01:37:38.208 [restartedMain] INFO  o.a.c.h.Http11NioProtocol - [log,173] - Starting ProtocolHandler ["http-nio-8081"]
01:37:38.790 [restartedMain] INFO  c.f.FrogApplication - [logStarted,61] - Started FrogApplication in 19.68 seconds (JVM running for 21.899)
01:37:39.821 [Quartz Scheduler [RuoyiScheduler]] INFO  o.q.c.QuartzScheduler - [start,547] - Scheduler RuoyiScheduler_$_WenCheng-Pro161762191454062 started.
01:38:32.201 [http-nio-8081-exec-1] INFO  o.a.c.c.C.[.[.[/] - [log,173] - Initializing Spring DispatcherServlet 'dispatcherServlet'
01:39:09.339 [schedule-pool-4] INFO  sys-user - [run,55] - [127.0.0.1]内网IP[admin][Error][用户不存在/密码错误]
01:39:15.145 [schedule-pool-12] INFO  sys-user - [run,55] - [127.0.0.1]内网IP[admin][Success][登录成功]
01:39:16.707 [http-nio-8081-exec-10] INFO  c.f.a.w.AlertWebSocketServer - [onOpen,38] - 收到新的连接请求，clientId: client_1762191556613_eeix48m0w
01:39:16.709 [http-nio-8081-exec-10] INFO  c.f.a.w.AlertWebSocketServer - [onOpen,53] - 客户端 client_1762191556613_eeix48m0w 连接成功，当前在线数：1
01:56:03.782 [http-nio-8081-exec-2] INFO  c.f.a.w.AlertWebSocketServer - [onClose,60] - 客户端 client_1762191556613_eeix48m0w 断开连接，当前在线数：0
01:56:13.809 [lettuce-nioEventLoop-5-1] INFO  i.l.c.p.CommandHandler - [log,217] - null Unexpected exception during request: java.io.IOException: 远程主机强迫关闭了一个现有的连接。
java.io.IOException: 远程主机强迫关闭了一个现有的连接。
	at sun.nio.ch.SocketDispatcher.read0(Native Method)
	at sun.nio.ch.SocketDispatcher.read(SocketDispatcher.java:43)
	at sun.nio.ch.IOUtil.readIntoNativeBuffer(IOUtil.java:223)
	at sun.nio.ch.IOUtil.read(IOUtil.java:192)
	at sun.nio.ch.SocketChannelImpl.read(SocketChannelImpl.java:378)
	at io.netty.buffer.PooledByteBuf.setBytes(PooledByteBuf.java:253)
	at io.netty.buffer.AbstractByteBuf.writeBytes(AbstractByteBuf.java:1132)
	at io.netty.channel.socket.nio.NioSocketChannel.doReadBytes(NioSocketChannel.java:350)
	at io.netty.channel.nio.AbstractNioByteChannel$NioByteUnsafe.read(AbstractNioByteChannel.java:151)
	at io.netty.channel.nio.NioEventLoop.processSelectedKey(NioEventLoop.java:719)
	at io.netty.channel.nio.NioEventLoop.processSelectedKeysOptimized(NioEventLoop.java:655)
	at io.netty.channel.nio.NioEventLoop.processSelectedKeys(NioEventLoop.java:581)
	at io.netty.channel.nio.NioEventLoop.run(NioEventLoop.java:493)
	at io.netty.util.concurrent.SingleThreadEventExecutor$4.run(SingleThreadEventExecutor.java:986)
	at io.netty.util.internal.ThreadExecutorMap$2.run(ThreadExecutorMap.java:74)
	at io.netty.util.concurrent.FastThreadLocalRunnable.run(FastThreadLocalRunnable.java:30)
	at java.lang.Thread.run(Thread.java:750)
01:56:13.942 [lettuce-eventExecutorLoop-1-2] INFO  i.l.c.p.ConnectionWatchdog - [log,171] - Reconnecting, last destination was localhost/127.0.0.1:6379
01:56:15.909 [SpringApplicationShutdownHook] INFO  o.q.c.QuartzScheduler - [standby,585] - Scheduler RuoyiScheduler_$_WenCheng-Pro161762191454062 paused.
01:56:16.448 [SpringApplicationShutdownHook] INFO  o.q.c.QuartzScheduler - [shutdown,666] - Scheduler RuoyiScheduler_$_WenCheng-Pro161762191454062 shutting down.
01:56:16.448 [SpringApplicationShutdownHook] INFO  o.q.c.QuartzScheduler - [standby,585] - Scheduler RuoyiScheduler_$_WenCheng-Pro161762191454062 paused.
01:56:16.450 [SpringApplicationShutdownHook] INFO  o.q.c.QuartzScheduler - [shutdown,740] - Scheduler RuoyiScheduler_$_WenCheng-Pro161762191454062 shutdown complete.
01:56:16.450 [SpringApplicationShutdownHook] INFO  sys-user - [shutdownAsyncManager,31] - ====关闭后台任务任务线程池====
01:56:16.456 [SpringApplicationShutdownHook] INFO  c.a.d.p.DruidDataSource - [close,2071] - {dataSource-1} closing ...
01:56:16.464 [SpringApplicationShutdownHook] INFO  c.a.d.p.DruidDataSource - [close,2144] - {dataSource-1} closed
